!Keysight Technologies,N5247B,MY60213743,A.16.20.04
!Date: Wednesday, June 04, 2025 17:01:59
!Correction: S11(C  1-Port  ) 
!S1P File: Measurement: S11:
# Hz S  RI   R 50
10000000 -0.98328775 -0.0042852759
20000000 -0.9847008 -0.0028600991
30000000 -0.98515111 -0.0017815828
40000000 -0.98594397 -0.0014464259
50000000 -0.9845767 -0.002533257
60000000 -0.98541671 -8.2060695e-005
70000000 -0.98705316 -0.00020194054
80000000 -0.98601532 0.0012480915
90000000 -0.98459089 0.00041106343
100000000 -0.98468512 -0.00066946447
110000000 -0.98569524 -0.00033143163
120000000 -0.98662579 -0.00053802133
130000000 -0.98624772 0.00051038712
140000000 -0.98696083 0.0010252595
150000000 -0.98621696 0.0020482838
160000000 -0.98623043 0.0024694502
170000000 -0.98629761 0.0028211772
180000000 -0.98592991 0.0035612285
190000000 -0.98518074 0.0032305121
200000000 -0.98597175 0.0030313283
210000000 -0.98658597 0.003555268
220000000 -0.98684287 0.0037157536
230000000 -0.98678863 0.0047270134
240000000 -0.98721039 0.0034237504
250000000 -0.98651135 0.0049239099
260000000 -0.98665375 0.0060892403
270000000 -0.98626602 0.0064421296
280000000 -0.98562628 0.0074115396
290000000 -0.98550797 0.0067805648
300000000 -0.98528266 0.0071689785
310000000 -0.9853487 0.008071404
320000000 -0.98643202 0.0075414479
330000000 -0.98673803 0.0086092055
340000000 -0.9867236 0.0079983026
350000000 -0.98679185 0.0087780654
360000000 -0.98719895 0.0091643929
370000000 -0.98659599 0.0096389949
380000000 -0.98675752 0.0098557472
390000000 -0.98669839 0.010342229
400000000 -0.98637009 0.01103729
410000000 -0.98621345 0.010434568
420000000 -0.98695117 0.012261599
430000000 -0.98678797 0.011480391
440000000 -0.98675859 0.010931194
450000000 -0.98733687 0.012642208
460000000 -0.98753828 0.012905329
470000000 -0.98728269 0.012979273
480000000 -0.98691535 0.013265848
490000000 -0.98769152 0.012960702
500000000 -0.9866733 0.012824789
510000000 -0.98744804 0.013800979
520000000 -0.98682666 0.013774782
530000000 -0.98766929 0.014927715
540000000 -0.98735243 0.014840126
550000000 -0.98679948 0.016369805
560000000 -0.98658687 0.015861154
570000000 -0.98671895 0.016385555
580000000 -0.98656392 0.017043024
590000000 -0.98633838 0.016758353
600000000 -0.98710418 0.016486675
610000000 -0.98611593 0.017541677
620000000 -0.98679888 0.017513603
630000000 -0.98669243 0.018073678
640000000 -0.98713738 0.018636405
650000000 -0.98726976 0.018499509
660000000 -0.98611403 0.019435942
670000000 -0.98711264 0.019400388
680000000 -0.98748022 0.019011825
690000000 -0.98646104 0.019802719
700000000 -0.98742151 0.021295071
710000000 -0.98826474 0.02042906
720000000 -0.98676538 0.020504951
730000000 -0.98702466 0.021371365
740000000 -0.98712724 0.02211234
750000000 -0.98703253 0.021571964
760000000 -0.98655891 0.022199482
770000000 -0.98637855 0.023048609
780000000 -0.98693293 0.02235873
790000000 -0.98792273 0.023804799
800000000 -0.98689473 0.023032218
810000000 -0.98660004 0.023467511
820000000 -0.98683619 0.023257375
830000000 -0.9869957 0.024305969
840000000 -0.98663706 0.02463448
850000000 -0.9865824 0.024969757
860000000 -0.98642129 0.025460482
870000000 -0.98689449 0.025379002
880000000 -0.98685265 0.025216132
890000000 -0.9860025 0.026370075
900000000 -0.98637688 0.026003987
910000000 -0.98681402 0.027182519
920000000 -0.98639256 0.027432248
930000000 -0.98601246 0.027492434
940000000 -0.9866187 0.027770068
950000000 -0.98650897 0.027946055
960000000 -0.98615819 0.028726563
970000000 -0.98606753 0.028969079
980000000 -0.98497903 0.029135555
990000000 -0.98521954 0.028637111
1000000000 -0.98580068 0.029846579
1010000000 -0.98634279 0.029755473
1020000000 -0.98567677 0.030408554
1030000000 -0.98605406 0.030509531
1040000000 -0.98598838 0.031196684
1050000000 -0.98695171 0.031649232
1060000000 -0.9853943 0.031212628
1070000000 -0.98628515 0.032154441
1080000000 -0.98678941 0.032646894
1090000000 -0.98602402 0.03202337
1100000000 -0.9860673 0.033477444
1110000000 -0.98565495 0.033192396
1120000000 -0.98663181 0.033342421
1130000000 -0.98634654 0.034166396
1140000000 -0.98656929 0.034655035
1150000000 -0.98697889 0.034625329
1160000000 -0.9865998 0.034757435
1170000000 -0.98578745 0.034650683
1180000000 -0.98632586 0.035573334
1190000000 -0.98629224 0.035395831
1200000000 -0.98631924 0.036222622
1210000000 -0.98677003 0.036061734
1220000000 -0.98647922 0.036358654
1230000000 -0.98689204 0.037068442
1240000000 -0.98663163 0.036955953
1250000000 -0.98612612 0.037682384
1260000000 -0.98644334 0.037442356
1270000000 -0.98712772 0.037674218
1280000000 -0.9856019 0.038113073
1290000000 -0.98647177 0.03843987
1300000000 -0.98644471 0.038505495
1310000000 -0.98616236 0.038951442
1320000000 -0.98619002 0.03971985
1330000000 -0.98569834 0.039871853
1340000000 -0.98652518 0.040481627
1350000000 -0.98647815 0.040055156
1360000000 -0.98652452 0.040726412
1370000000 -0.98709857 0.040711015
1380000000 -0.98657322 0.04060781
1390000000 -0.98644871 0.041554034
1400000000 -0.98659724 0.041548371
1410000000 -0.98625046 0.041876346
1420000000 -0.98556972 0.042220622
1430000000 -0.98506492 0.043295413
1440000000 -0.98508632 0.043079942
1450000000 -0.98569399 0.043328404
1460000000 -0.98564053 0.043601513
1470000000 -0.98623455 0.044593781
1480000000 -0.98599309 0.04431808
1490000000 -0.98628789 0.04476697
1500000000 -0.98483157 0.045069426
1510000000 -0.98542273 0.045549512
1520000000 -0.98524439 0.045930117
1530000000 -0.98514175 0.045985043
1540000000 -0.98513603 0.04575751
1550000000 -0.98475623 0.046270698
1560000000 -0.98502737 0.047033608
1570000000 -0.98527008 0.047423221
1580000000 -0.98485911 0.047276765
1590000000 -0.98529708 0.047946617
1600000000 -0.9851734 0.04804045
1610000000 -0.98510116 0.048879623
1620000000 -0.98535407 0.048956037
1630000000 -0.98469287 0.048421741
1640000000 -0.98490548 0.048658341
1650000000 -0.98553872 0.049828589
1660000000 -0.98492467 0.049881876
1670000000 -0.98487836 0.049909025
1680000000 -0.98469239 0.05109781
1690000000 -0.98510468 0.051532716
1700000000 -0.98515034 0.051502839
1710000000 -0.98582351 0.051340997
1720000000 -0.98523211 0.051586777
1730000000 -0.98459697 0.052010775
1740000000 -0.98568416 0.052552521
1750000000 -0.98475111 0.052193932
1760000000 -0.98492479 0.052546889
1770000000 -0.98528713 0.052914381
1780000000 -0.98492855 0.053641468
1790000000 -0.98461735 0.053894818
1800000000 -0.985102 0.054907851
1810000000 -0.98424143 0.054798424
1820000000 -0.98564744 0.054207981
1830000000 -0.98523092 0.055587009
1840000000 -0.98470992 0.054800898
1850000000 -0.98508835 0.055637151
1860000000 -0.9865194 0.056257918
1870000000 -0.98509002 0.056066275
1880000000 -0.98580146 0.056366976
1890000000 -0.98517179 0.056532085
1900000000 -0.98593599 0.056348443
1910000000 -0.98484755 0.057211492
1920000000 -0.98390448 0.057579637
1930000000 -0.9843486 0.058355838
1940000000 -0.98544061 0.05787003
1950000000 -0.98480475 0.058619618
1960000000 -0.98622543 0.058862738
1970000000 -0.98599362 0.059345365
1980000000 -0.98504043 0.058775991
1990000000 -0.98527473 0.059516385
2000000000 -0.98605013 0.059570491
2010000000 -0.98497242 0.060453162
2020000000 -0.98492503 0.060739756
2030000000 -0.98385847 0.060678303
2040000000 -0.98464745 0.06126542
2050000000 -0.98414958 0.061003149
2060000000 -0.98497134 0.062035531
2070000000 -0.9844355 0.06279394
2080000000 -0.98556972 0.062090427
2090000000 -0.98550707 0.062795796
2100000000 -0.98445868 0.062996626
2110000000 -0.98445129 0.063602895
2120000000 -0.98448956 0.063549057
2130000000 -0.98441947 0.063327342
2140000000 -0.98383307 0.063524723
2150000000 -0.98399562 0.064146191
2160000000 -0.98426056 0.065176994
2170000000 -0.983329 0.065294251
2180000000 -0.98302114 0.065096289
2190000000 -0.98308229 0.065902799
2200000000 -0.98402423 0.066346377
2210000000 -0.9835223 0.065754771
2220000000 -0.98271495 0.06652914
2230000000 -0.98351479 0.066567242
2240000000 -0.98366493 0.066649437
2250000000 -0.98338509 0.067603163
2260000000 -0.98312747 0.06761682
2270000000 -0.98251814 0.068834573
2280000000 -0.98311514 0.067873478
2290000000 -0.98201168 0.068965018
2300000000 -0.98346543 0.0687766
2310000000 -0.98286754 0.069467545
2320000000 -0.98317909 0.069684386
2330000000 -0.98275232 0.069578119
2340000000 -0.98311114 0.070347637
2350000000 -0.98300993 0.070550956
2360000000 -0.98236507 0.070755541
2370000000 -0.98176396 0.071761936
2380000000 -0.98311388 0.071482837
2390000000 -0.98297834 0.07216832
2400000000 -0.98217899 0.071925968
2410000000 -0.98161161 0.07252872
2420000000 -0.98255682 0.073692739
2430000000 -0.98201621 0.073033914
2440000000 -0.98209018 0.073738903
2450000000 -0.98196268 0.07324478
2460000000 -0.98219085 0.074061513
2470000000 -0.98158187 0.074066758
2480000000 -0.98194396 0.074428529
2490000000 -0.98161703 0.07485652
2500000000 -0.98137522 0.074943721
2510000000 -0.98190123 0.075572841
2520000000 -0.98194522 0.075309306
2530000000 -0.98147583 0.075325191
2540000000 -0.98128867 0.075877741
2550000000 -0.98159009 0.076182991
2560000000 -0.98184073 0.07710246
2570000000 -0.98129231 0.077312618
2580000000 -0.98075658 0.077262521
2590000000 -0.98134518 0.077917613
2600000000 -0.98130238 0.078015685
2610000000 -0.98107123 0.078272671
2620000000 -0.98125327 0.077914193
2630000000 -0.98028934 0.078583539
2640000000 -0.98102438 0.078789905
2650000000 -0.98136538 0.07947734
2660000000 -0.98090619 0.079269588
2670000000 -0.9809978 0.0798392
2680000000 -0.98095584 0.080055267
2690000000 -0.9800303 0.080426127
2700000000 -0.98102695 0.080257416
2710000000 -0.98047781 0.08098349
2720000000 -0.98012072 0.081485525
2730000000 -0.98026574 0.081085742
2740000000 -0.9798817 0.081969857
2750000000 -0.98005342 0.081971526
2760000000 -0.97990698 0.083136916
2770000000 -0.97937965 0.082933478
2780000000 -0.97988945 0.082858086
2790000000 -0.97886699 0.082829624
2800000000 -0.97958708 0.083128653
2810000000 -0.97974974 0.083258182
2820000000 -0.97934592 0.084003955
2830000000 -0.978953 0.08438006
2840000000 -0.97920847 0.084320754
2850000000 -0.97895205 0.085636362
2860000000 -0.97913694 0.085402906
2870000000 -0.97876406 0.085245997
2880000000 -0.97880173 0.086193882
2890000000 -0.97847581 0.085702121
2900000000 -0.97861141 0.086245462
2910000000 -0.97739422 0.086619109
2920000000 -0.97800696 0.086814672
2930000000 -0.97779125 0.087559015
2940000000 -0.97830129 0.08721596
2950000000 -0.97802925 0.088040888
2960000000 -0.9783318 0.087813616
2970000000 -0.97774559 0.088182122
2980000000 -0.97760648 0.088116586
2990000000 -0.97750998 0.089293122
3000000000 -0.97803706 0.089470387
3010000000 -0.9785369 0.08991757
3020000000 -0.97746295 0.089687765
3030000000 -0.97703385 0.089496866
3040000000 -0.97695917 0.090535015
3050000000 -0.97638619 0.090157896
3060000000 -0.97713542 0.091008052
3070000000 -0.97669697 0.091296226
3080000000 -0.9770503 0.091587216
3090000000 -0.97708625 0.091709554
3100000000 -0.97665918 0.092125714
3110000000 -0.97734809 0.092580512
3120000000 -0.97665608 0.092828602
3130000000 -0.9767046 0.09329769
3140000000 -0.97653395 0.092685468
3150000000 -0.97631979 0.092821002
3160000000 -0.97671193 0.094209403
3170000000 -0.97636425 0.093778968
3180000000 -0.97653973 0.094410837
3190000000 -0.97640461 0.094613895
3200000000 -0.97605336 0.094999135
3210000000 -0.9763788 0.095010161
3220000000 -0.97690743 0.095183626
3230000000 -0.97631603 0.095685303
3240000000 -0.97640246 0.095361233
3250000000 -0.97642863 0.09638232
3260000000 -0.97623289 0.096547246
3270000000 -0.9759472 0.097255647
3280000000 -0.97550249 0.096759677
3290000000 -0.97541618 0.096907467
3300000000 -0.97561705 0.098565206
3310000000 -0.97594351 0.098006964
3320000000 -0.9755764 0.097994179
3330000000 -0.97510052 0.098767698
3340000000 -0.97541243 0.099300593
3350000000 -0.97520316 0.099271484
3360000000 -0.97535431 0.099349469
3370000000 -0.97512811 0.099200755
3380000000 -0.97493422 0.099917382
3390000000 -0.97484988 0.10021219
3400000000 -0.97490364 0.10045522
3410000000 -0.97509807 0.10137048
3420000000 -0.97387493 0.10177574
3430000000 -0.97405142 0.10166903
3440000000 -0.97461379 0.10190076
3450000000 -0.97434586 0.10189018
3460000000 -0.97500515 0.10210529
3470000000 -0.97457635 0.10232705
3480000000 -0.97310591 0.10298178
3490000000 -0.97429132 0.10316503
3500000000 -0.97420681 0.10336606
3510000000 -0.97319382 0.10411584
3520000000 -0.97437584 0.10377264
3530000000 -0.97296703 0.10449371
3540000000 -0.97378933 0.10430691
3550000000 -0.97369862 0.10499093
3560000000 -0.97385985 0.10579257
3570000000 -0.97383928 0.10578743
3580000000 -0.97351044 0.10614485
3590000000 -0.97406375 0.10582018
3600000000 -0.97357798 0.10640931
3610000000 -0.97404003 0.10599443
3620000000 -0.9741329 0.10666662
3630000000 -0.97315878 0.10664056
3640000000 -0.97355378 0.10757564
3650000000 -0.97315687 0.10787159
3660000000 -0.97255731 0.10818147
3670000000 -0.97398454 0.10799909
3680000000 -0.97328883 0.10804754
3690000000 -0.9732753 0.10899592
3700000000 -0.97426027 0.10942888
3710000000 -0.97310561 0.109825
3720000000 -0.97411346 0.10881129
3730000000 -0.97319394 0.10965759
3740000000 -0.97318918 0.11108457
3750000000 -0.9723345 0.10999942
3760000000 -0.97269744 0.11117169
3770000000 -0.97259599 0.11073701
3780000000 -0.97281742 0.11158118
3790000000 -0.97322315 0.11189401
3800000000 -0.97305048 0.11246517
3810000000 -0.97311628 0.11228237
3820000000 -0.97328532 0.1129249
3830000000 -0.97288859 0.11265475
3840000000 -0.97192454 0.11267132
3850000000 -0.97325665 0.11385003
3860000000 -0.97291648 0.11355546
3870000000 -0.97257948 0.1145401
3880000000 -0.97252095 0.11387846
3890000000 -0.97218782 0.11478356
3900000000 -0.97236913 0.11511289
3910000000 -0.97244704 0.11598253
3920000000 -0.9721204 0.11551848
3930000000 -0.97125828 0.11565068
3940000000 -0.97246253 0.1158441
3950000000 -0.97175348 0.11675043
3960000000 -0.97233903 0.11644396
3970000000 -0.97175908 0.11688255
3980000000 -0.97100455 0.11655052
3990000000 -0.97168577 0.11736739
4000000000 -0.971892 0.11725011
4010000000 -0.97122538 0.11810237
4020000000 -0.9716624 0.11821735
4030000000 -0.97106642 0.11907749
4040000000 -0.97145224 0.11881351
4050000000 -0.97057009 0.11920233
4060000000 -0.97117841 0.11985207
4070000000 -0.9707554 0.11951247
4080000000 -0.97081751 0.1203225
4090000000 -0.97119182 0.12029135
4100000000 -0.97103667 0.1200662
4110000000 -0.9702062 0.12077431
4120000000 -0.97030783 0.12086838
4130000000 -0.97045887 0.12143538
4140000000 -0.97056556 0.1210666
4150000000 -0.97108251 0.12217554
4160000000 -0.97009951 0.12218371
4170000000 -0.96989721 0.1221264
4180000000 -0.96966046 0.12325631
4190000000 -0.97021157 0.12340772
4200000000 -0.96978629 0.12288752
4210000000 -0.96946359 0.12396882
4220000000 -0.97019237 0.1243898
4230000000 -0.9691062 0.12445313
4240000000 -0.9695605 0.12403851
4250000000 -0.96925974 0.12455198
4260000000 -0.96919626 0.12530923
4270000000 -0.96966791 0.1253064
4280000000 -0.96892434 0.12552908
4290000000 -0.96921301 0.12569991
4300000000 -0.96893078 0.12626633
4310000000 -0.96959937 0.12633139
4320000000 -0.96882665 0.12714751
4330000000 -0.96879029 0.12714657
4340000000 -0.96938735 0.12698084
4350000000 -0.96844071 0.12781507
4360000000 -0.96836615 0.12817818
4370000000 -0.96923727 0.1284121
4380000000 -0.9686693 0.12822238
4390000000 -0.96841389 0.12901136
4400000000 -0.96833998 0.12908435
4410000000 -0.96822751 0.12937796
4420000000 -0.96852213 0.12904309
4430000000 -0.96788692 0.130335
4440000000 -0.96755266 0.12899408
4450000000 -0.96801448 0.13026303
4460000000 -0.96771753 0.13045767
4470000000 -0.96796376 0.13097781
4480000000 -0.96793187 0.13120192
4490000000 -0.96761149 0.13227624
4500000000 -0.96736163 0.13225222
4510000000 -0.96713042 0.13165772
4520000000 -0.96792984 0.13281411
4530000000 -0.96797073 0.13255802
4540000000 -0.96782112 0.13335815
4550000000 -0.96684283 0.13332838
4560000000 -0.96745062 0.13344598
4570000000 -0.96619272 0.13372055
4580000000 -0.96681648 0.13403295
4590000000 -0.96715957 0.13436848
4600000000 -0.96557277 0.13444173
4610000000 -0.96664292 0.13418803
4620000000 -0.96711218 0.13502425
4630000000 -0.96566105 0.13434729
4640000000 -0.96638471 0.13548654
4650000000 -0.96665961 0.13524511
4660000000 -0.9650892 0.13616475
4670000000 -0.96562529 0.13606259
4680000000 -0.9655714 0.13628232
4690000000 -0.96573865 0.13646552
4700000000 -0.96656245 0.13706273
4710000000 -0.96539193 0.13756403
4720000000 -0.96493745 0.13704354
4730000000 -0.96528077 0.13663384
4740000000 -0.96623367 0.13811015
4750000000 -0.96539724 0.13803899
4760000000 -0.96537447 0.1385181
4770000000 -0.96539259 0.13861978
4780000000 -0.96480501 0.13929334
4790000000 -0.9647342 0.1392976
4800000000 -0.96428227 0.13954505
4810000000 -0.96445751 0.1393161
4820000000 -0.96431792 0.14024067
4830000000 -0.96401876 0.14031062
4840000000 -0.96449935 0.14025886
4850000000 -0.96403509 0.14039937
4860000000 -0.96393389 0.14095078
4870000000 -0.963781 0.14091663
4880000000 -0.963063 0.14040932
4890000000 -0.9634428 0.1417307
4900000000 -0.96346891 0.14204356
4910000000 -0.96292549 0.14161173
4920000000 -0.96310973 0.14236423
4930000000 -0.96300447 0.1429041
4940000000 -0.96318865 0.14355622
4950000000 -0.96395195 0.1438601
4960000000 -0.9631145 0.14395633
4970000000 -0.96346241 0.14304152
4980000000 -0.9622879 0.143682
4990000000 -0.96282893 0.1443806
5000000000 -0.96307003 0.1445473
5010000000 -0.96280903 0.14499867
5020000000 -0.96287876 0.1450147
5030000000 -0.96294069 0.14567155
5040000000 -0.96258205 0.14566037
5050000000 -0.96250933 0.14585336
5060000000 -0.96273386 0.14719969
5070000000 -0.96249169 0.14676949
5080000000 -0.96275252 0.14722787
5090000000 -0.96238279 0.14693823
5100000000 -0.96235335 0.14768563
5110000000 -0.962542 0.14798415
5120000000 -0.96219528 0.14828452
5130000000 -0.96238154 0.14801079
5140000000 -0.96106768 0.14825857
5150000000 -0.96152908 0.14842543
5160000000 -0.96067739 0.14944583
5170000000 -0.96179056 0.14911261
5180000000 -0.9607529 0.14875978
5190000000 -0.96133435 0.14932913
5200000000 -0.961941 0.14920935
5210000000 -0.96146291 0.15033484
5220000000 -0.96185577 0.14989719
5230000000 -0.96104735 0.15058732
5240000000 -0.96118402 0.15104496
5250000000 -0.96052158 0.15165943
5260000000 -0.96069479 0.15098357
5270000000 -0.96049738 0.15198076
5280000000 -0.96024609 0.15163906
5290000000 -0.96018189 0.15291403
5300000000 -0.96076047 0.15257543
5310000000 -0.9607237 0.1526438
5320000000 -0.96051514 0.15300813
5330000000 -0.96030408 0.15360028
5340000000 -0.96037388 0.15334703
5350000000 -0.96033174 0.15378672
5360000000 -0.96009135 0.1536535
5370000000 -0.96056068 0.15441467
5380000000 -0.96032345 0.1548233
5390000000 -0.95900238 0.15484788
5400000000 -0.95963717 0.15494472
5410000000 -0.95910597 0.15518388
5420000000 -0.95933181 0.15607165
5430000000 -0.95923889 0.15555927
5440000000 -0.9590537 0.15611097
5450000000 -0.95988649 0.15678227
5460000000 -0.95892179 0.15655798
5470000000 -0.95888346 0.15692818
5480000000 -0.95966488 0.15621451
5490000000 -0.95891589 0.15841155
5500000000 -0.95919281 0.15797372
5510000000 -0.95928836 0.15813231
5520000000 -0.95850432 0.15805234
5530000000 -0.95844233 0.15810201
5540000000 -0.95880318 0.15900837
5550000000 -0.95870143 0.15891895
5560000000 -0.95821834 0.15968463
5570000000 -0.95857388 0.15971401
5580000000 -0.95823359 0.1605503
5590000000 -0.95797992 0.15996587
5600000000 -0.95785284 0.16046745
5610000000 -0.95842606 0.16091159
