!Data measured by Modelithics Inc.  support@modelithics.com  813-866-6335   Tampa FL USA
!  2-Port S-parameters saved by WinCal
! VAR MeasName=S-Parameters (CALIBRATED_DATA) read from VNA (N5247A)
! VAR MeasDate=6/27/2013 3:18:33 PM
! VAR NAME=Measurement 4
! VAR FILENAME=2p5mm_task1_28p1Vds_m2p77Vgs_127mA_25C_S8.s2p
! VAR DATE=6/27/2013 3:18:33 PM
! VAR PHYS_PORTS=1,2
!
# Hz S RI R 50
200000000.000 +7.6428413391E-001 -5.9386193752E-001  -2.7989145279E+001 +1.1581600189E+001  +2.7651137207E-003 +7.3039596900E-003  +2.4943082035E-001 -1.3760867715E-001 
300000000.000 +5.5237382650E-001 -7.7665621042E-001  -2.4171573639E+001 +1.4820927620E+001  +5.2949958481E-003 +9.5204068348E-003  +2.0406928658E-001 -1.8839043379E-001 
400000000.000 +3.3440622687E-001 -8.7933772802E-001  -2.0142696381E+001 +1.6757184982E+001  +7.9286443070E-003 +1.0731970891E-002  +1.5204162896E-001 -2.1937967837E-001 
500000000.000 +1.3536177576E-001 -9.1598337889E-001  -1.6435203552E+001 +1.7435182571E+001  +1.0227454826E-002 +1.1244955473E-002  +1.0941942036E-001 -2.3490090668E-001 
600000000.000 -3.3933382481E-002 -9.1769087315E-001  -1.3293257713E+001 +1.7452129364E+001  +1.2287502177E-002 +1.1279554106E-002  +7.0383168757E-002 -2.4349457026E-001 
700000000.000 -1.7887064815E-001 -8.9297401905E-001  -1.0650413513E+001 +1.7025640488E+001  +1.3927360065E-002 +1.1011783034E-002  +3.6438852549E-002 -2.4387341738E-001 
800000000.000 -2.9483798146E-001 -8.5557633638E-001  -8.5399589539E+000 +1.6367214203E+001  +1.5299373306E-002 +1.0637342930E-002  +1.0757895187E-002 -2.4409687519E-001 
900000000.000 -3.8926568627E-001 -8.1098407507E-001  -6.7695965767E+000 +1.5605732918E+001  +1.6339763999E-002 +1.0115564801E-002  -1.2278845534E-002 -2.4288073182E-001 
1000000000.000 -4.6560350060E-001 -7.6476377249E-001  -5.3675451279E+000 +1.4764054298E+001  +1.7162321135E-002 +9.7020557150E-003  -3.0972950161E-002 -2.3930296302E-001 
1100000000.000 -5.2921295166E-001 -7.1944433451E-001  -4.2312970161E+000 +1.3954090118E+001  +1.7829695717E-002 +9.2047881335E-003  -4.6841084957E-002 -2.3534229398E-001 
1200000000.000 -5.8196014166E-001 -6.7558860779E-001  -3.3113398552E+000 +1.3197161674E+001  +1.8463123590E-002 +8.7856007740E-003  -5.9165399522E-002 -2.3225504160E-001 
1300000000.000 -6.2496131659E-001 -6.3192015886E-001  -2.4996597767E+000 +1.2448994637E+001  +1.8927097321E-002 +8.2463100553E-003  -7.3278166354E-002 -2.3094402254E-001 
1400000000.000 -6.6165924072E-001 -5.9194737673E-001  -1.8465286493E+000 +1.1784122467E+001  +1.9302653149E-002 +7.8387977555E-003  -8.3636112511E-002 -2.3003622890E-001 
1500000000.000 -6.9117271900E-001 -5.5415779352E-001  -1.3079299927E+000 +1.1150263786E+001  +1.9551392645E-002 +7.4160532095E-003  -9.2958249152E-002 -2.2825782001E-001 
1600000000.000 -7.1595972776E-001 -5.1880192757E-001  -8.4938764572E-001 +1.0561786652E+001  +1.9746787846E-002 +7.0076794364E-003  -1.0168973356E-001 -2.2696039081E-001 
1700000000.000 -7.3662364483E-001 -4.8698428273E-001  -4.7909393907E-001 +1.0007659912E+001  +1.9824475050E-002 +6.6538588144E-003  -1.0934400558E-001 -2.2496323287E-001 
1800000000.000 -7.5511604548E-001 -4.5650655031E-001  -1.2495633960E-001 +9.5107078552E+000  +1.9910953939E-002 +6.2982449308E-003  -1.1713992804E-001 -2.2694516182E-001 
1900000000.000 -7.7157032490E-001 -4.2897772789E-001  +1.5309026837E-001 +9.0283670425E+000  +1.9874343649E-002 +6.1219893396E-003  -1.2536245584E-001 -2.2614918649E-001 
2000000000.000 -7.8649979830E-001 -4.0241494775E-001  +3.9267772436E-001 +8.6068277359E+000  +1.9929058850E-002 +5.9709581546E-003  -1.3091339171E-001 -2.2655692697E-001 
2100000000.000 -7.9926472902E-001 -3.7677776814E-001  +6.1637902260E-001 +8.2073507309E+000  +1.9983919337E-002 +5.7670385577E-003  -1.3726335764E-001 -2.2847272456E-001 
2200000000.000 -8.1032240391E-001 -3.5291850567E-001  +8.0430954695E-001 +7.8389959335E+000  +2.0000496879E-002 +5.5834907107E-003  -1.4297348261E-001 -2.2989761829E-001 
2300000000.000 -8.2048392296E-001 -3.2932192087E-001  +9.7500616312E-001 +7.4824934006E+000  +2.0049655810E-002 +5.3505757824E-003  -1.5031924844E-001 -2.3182386160E-001 
2400000000.000 -8.2781761885E-001 -3.0750343204E-001  +1.1186294556E+000 +7.1442809105E+000  +1.9904403016E-002 +5.1086014137E-003  -1.5746907890E-001 -2.3248292506E-001 
2500000000.000 -8.3495199680E-001 -2.8760141134E-001  +1.2405233383E+000 +6.8384547234E+000  +1.9743589684E-002 +5.0434949808E-003  -1.6275773942E-001 -2.3347799480E-001 
2600000000.000 -8.4151417017E-001 -2.6845994592E-001  +1.3550181389E+000 +6.5538053513E+000  +1.9652031362E-002 +4.9704122357E-003  -1.6796541214E-001 -2.3610955477E-001 
2700000000.000 -8.4733653069E-001 -2.5008827448E-001  +1.4657022953E+000 +6.2753381729E+000  +1.9531201571E-002 +4.9590999261E-003  -1.7506425083E-001 -2.3959912360E-001 
2800000000.000 -8.5288864374E-001 -2.3264305294E-001  +1.5517731905E+000 +6.0116395950E+000  +1.9503051415E-002 +4.9311066978E-003  -1.8193569779E-001 -2.4149304628E-001 
2900000000.000 -8.5741019249E-001 -2.1547256410E-001  +1.6305230856E+000 +5.7676668167E+000  +1.9435470924E-002 +4.8596691340E-003  -1.8872311711E-001 -2.4356362224E-001 
3000000000.000 -8.6146390438E-001 -1.9933620095E-001  +1.6992146969E+000 +5.5326023102E+000  +1.9359786063E-002 +4.8340768553E-003  -1.9565549493E-001 -2.4535718560E-001 
3100000000.000 -8.6526846886E-001 -1.8379569054E-001  +1.7619950771E+000 +5.3078274727E+000  +1.9228119403E-002 +4.7373357229E-003  -2.0326565206E-001 -2.4740859866E-001 
3200000000.000 -8.6830824614E-001 -1.6914069653E-001  +1.8144892454E+000 +5.0950078964E+000  +1.9013468176E-002 +4.7531072050E-003  -2.1038563550E-001 -2.4902635813E-001 
3300000000.000 -8.7139481306E-001 -1.5503412485E-001  +1.8591105938E+000 +4.8942508698E+000  +1.8852975219E-002 +4.8064920120E-003  -2.1719206870E-001 -2.5046917796E-001 
3400000000.000 -8.7419074774E-001 -1.4164577425E-001  +1.8960834742E+000 +4.7070279121E+000  +1.8799249083E-002 +4.9442020245E-003  -2.2337198257E-001 -2.5220936537E-001 
3500000000.000 -8.7732774019E-001 -1.2852698565E-001  +1.9330798388E+000 +4.5283732414E+000  +1.8805999309E-002 +4.9676089548E-003  -2.3058584332E-001 -2.5438991189E-001 
3600000000.000 -8.8010853529E-001 -1.1516852677E-001  +1.9650858641E+000 +4.3564939499E+000  +1.8725542352E-002 +4.9265641719E-003  -2.3760691285E-001 -2.5566813350E-001 
3700000000.000 -8.8223212957E-001 -1.0205584019E-001  +1.9921158552E+000 +4.1946854591E+000  +1.8641082570E-002 +4.8426189460E-003  -2.4409040809E-001 -2.5732681155E-001 
3800000000.000 -8.8380074501E-001 -8.9295394719E-002  +2.0197918415E+000 +4.0405373573E+000  +1.8442893401E-002 +4.7565712593E-003  -2.5077584386E-001 -2.5974261761E-001 
3900000000.000 -8.8517493010E-001 -7.7615693212E-002  +2.0423309803E+000 +3.8883228302E+000  +1.8181633204E-002 +4.7972565517E-003  -2.5834852457E-001 -2.6178935170E-001 
4000000000.000 -8.8673424721E-001 -6.6179051995E-002  +2.0618450642E+000 +3.7412531376E+000  +1.7986889929E-002 +4.8890104517E-003  -2.6635500789E-001 -2.6336351037E-001 
4100000000.000 -8.8791626692E-001 -5.4953504354E-002  +2.0767409801E+000 +3.6004402637E+000  +1.7781736329E-002 +5.0162575208E-003  -2.7423709631E-001 -2.6470381021E-001 
4200000000.000 -8.8926094770E-001 -4.4012133032E-002  +2.0870702267E+000 +3.4679379463E+000  +1.7661605030E-002 +5.1478226669E-003  -2.8169503808E-001 -2.6554384828E-001 
4300000000.000 -8.9032411575E-001 -3.3070672303E-002  +2.0970010757E+000 +3.3413250446E+000  +1.7530150712E-002 +5.2221948281E-003  -2.8906732798E-001 -2.6672184467E-001 
4400000000.000 -8.9119726419E-001 -2.2486997768E-002  +2.1053607464E+000 +3.2178599834E+000  +1.7356554046E-002 +5.3119612858E-003  -2.9708766937E-001 -2.6785898209E-001 
4500000000.000 -8.9187717438E-001 -1.2036936358E-002  +2.1134696007E+000 +3.0984334946E+000  +1.7177939415E-002 +5.3969798610E-003  -3.0505970120E-001 -2.6879191399E-001 
4600000000.000 -8.9236885309E-001 -2.1053957753E-003  +2.1159210205E+000 +2.9825193882E+000  +1.6985943541E-002 +5.5114948191E-003  -3.1297525764E-001 -2.6934716105E-001 
4700000000.000 -8.9294254780E-001 +7.6278168708E-003  +2.1182107925E+000 +2.8709123135E+000  +1.6793334857E-002 +5.6682056747E-003  -3.2106420398E-001 -2.7002122998E-001 
4800000000.000 -8.9356899261E-001 +1.7302548513E-002  +2.1161625385E+000 +2.7628641129E+000  +1.6626514494E-002 +5.7947635651E-003  -3.2949355245E-001 -2.7004176378E-001 
4900000000.000 -8.9401257038E-001 +2.6907498017E-002  +2.1126003265E+000 +2.6635158062E+000  +1.6482580453E-002 +5.9883240610E-003  -3.3674708009E-001 -2.6996535063E-001 
5000000000.000 -8.9425778389E-001 +3.6205679178E-002  +2.1123831272E+000 +2.5639872551E+000  +1.6340894625E-002 +6.1165159568E-003  -3.4496754408E-001 -2.7106612921E-001 
5100000000.000 -8.9456844330E-001 +4.5449502766E-002  +2.1068258286E+000 +2.4690690041E+000  +1.6163788736E-002 +6.2897005118E-003  -3.5301777720E-001 -2.7049279213E-001 
5200000000.000 -8.9468741417E-001 +5.4405286908E-002  +2.1004936695E+000 +2.3766927719E+000  +1.5981795266E-002 +6.4626280218E-003  -3.6108520627E-001 -2.6998955011E-001 
5300000000.000 -8.9481306076E-001 +6.3452444971E-002  +2.0960471630E+000 +2.2888228893E+000  +1.5846204013E-002 +6.5992563032E-003  -3.6928412318E-001 -2.6986062527E-001 
5400000000.000 -8.9479160309E-001 +7.2319269180E-002  +2.0879726410E+000 +2.2018072605E+000  +1.5652470291E-002 +6.8007134832E-003  -3.7744230032E-001 -2.6884341240E-001 
5500000000.000 -8.9457011223E-001 +8.1022642553E-002  +2.0799505711E+000 +2.1178433895E+000  +1.5484924428E-002 +6.9814715534E-003  -3.8550850749E-001 -2.6820906997E-001 
5600000000.000 -8.9450162649E-001 +8.9717239141E-002  +2.0684189796E+000 +2.0379693508E+000  +1.5318055637E-002 +7.2199944407E-003  -3.9340841770E-001 -2.6659154892E-001 
5700000000.000 -8.9414340258E-001 +9.8227307200E-002  +2.0589678288E+000 +1.9608039856E+000  +1.5196953900E-002 +7.4439481832E-003  -4.0108457208E-001 -2.6571056247E-001 
5800000000.000 -8.9391809702E-001 +1.0653162003E-001  +2.0472488403E+000 +1.8857829571E+000  +1.5062145889E-002 +7.6652113348E-003  -4.0909510851E-001 -2.6434877515E-001 
5900000000.000 -8.9350318909E-001 +1.1485190690E-001  +2.0355443954E+000 +1.8137329817E+000  +1.4916299842E-002 +7.8795561567E-003  -4.1698715091E-001 -2.6298403740E-001 
6000000000.000 -8.9288878441E-001 +1.2296484411E-001  +2.0242559910E+000 +1.7426687479E+000  +1.4751450159E-002 +8.1015527248E-003  -4.2512455583E-001 -2.6193374395E-001 
6100000000.000 -8.9241963625E-001 +1.3094501197E-001  +2.0114061832E+000 +1.6734937429E+000  +1.4627290890E-002 +8.3500510082E-003  -4.3308213353E-001 -2.6049861312E-001 
6200000000.000 -8.9208298922E-001 +1.3899706304E-001  +1.9966326952E+000 +1.6072138548E+000  +1.4521840028E-002 +8.6131505668E-003  -4.4096198678E-001 -2.5830286741E-001 
6300000000.000 -8.9156711102E-001 +1.4705309272E-001  +1.9808657169E+000 +1.5418633223E+000  +1.4392797835E-002 +8.7964246050E-003  -4.4909623265E-001 -2.5576525927E-001 
6400000000.000 -8.9101314545E-001 +1.5516825020E-001  +1.9661102295E+000 +1.4832808971E+000  +1.4268152416E-002 +9.0585472062E-003  -4.5588630438E-001 -2.5356552005E-001 
6500000000.000 -8.9038354158E-001 +1.6299641132E-001  +1.9478547573E+000 +1.4215171337E+000  +1.4111938886E-002 +9.3502672389E-003  -4.6410465240E-001 -2.5058689713E-001 
6600000000.000 -8.8935607672E-001 +1.7073111236E-001  +1.9344183207E+000 +1.3641957045E+000  +1.3999711722E-002 +9.5715578645E-003  -4.7134891152E-001 -2.4891632795E-001 
6700000000.000 -8.8857787848E-001 +1.7828464508E-001  +1.9157260656E+000 +1.3114953041E+000  +1.3873487711E-002 +9.8568098620E-003  -4.7810205817E-001 -2.4557428062E-001 
6800000000.000 -8.8766479492E-001 +1.8581993878E-001  +1.9013009071E+000 +1.2555059195E+000  +1.3730914332E-002 +1.0112592950E-002  -4.8603102565E-001 -2.4355429411E-001 
6900000000.000 -8.8677161932E-001 +1.9334544241E-001  +1.8849991560E+000 +1.2047213316E+000  +1.3607251458E-002 +1.0425494052E-002  -4.9305042624E-001 -2.4057808518E-001 
7000000000.000 -8.8580542803E-001 +2.0082418621E-001  +1.8688527346E+000 +1.1534740925E+000  +1.3498583809E-002 +1.0757316835E-002  -5.0037401915E-001 -2.3748850822E-001 
7100000000.000 -8.8470637798E-001 +2.0840552449E-001  +1.8540946245E+000 +1.1035153866E+000  +1.3446309604E-002 +1.1062702164E-002  -5.0761145353E-001 -2.3515099287E-001 
7200000000.000 -8.8358032703E-001 +2.1588574350E-001  +1.8353792429E+000 +1.0552512407E+000  +1.3368248940E-002 +1.1359426193E-002  -5.1475530863E-001 -2.3163975775E-001 
7300000000.000 -8.8236320019E-001 +2.2341372073E-001  +1.8176487684E+000 +1.0077264309E+000  +1.3322352432E-002 +1.1663518846E-002  -5.2178567648E-001 -2.2861984372E-001 
7400000000.000 -8.8097351789E-001 +2.3077598214E-001  +1.8011199236E+000 +9.6287190914E-001  +1.3224932365E-002 +1.1962034740E-002  -5.2892976999E-001 -2.2573028505E-001 
7500000000.000 -8.7975728512E-001 +2.3802983761E-001  +1.7823965549E+000 +9.1976839304E-001  +1.3149222359E-002 +1.2292231433E-002  -5.3570812941E-001 -2.2161242366E-001 
7600000000.000 -8.7846767902E-001 +2.4517546594E-001  +1.7645214796E+000 +8.7647312880E-001  +1.3061168604E-002 +1.2621957809E-002  -5.4319751263E-001 -2.1815080941E-001 
7700000000.000 -8.7714850903E-001 +2.5234967470E-001  +1.7476953268E+000 +8.3667397499E-001  +1.3033592142E-002 +1.2982765213E-002  -5.4980236292E-001 -2.1487307549E-001 
7800000000.000 -8.7575751543E-001 +2.5932174921E-001  +1.7280192375E+000 +7.9656296968E-001  +1.2984459288E-002 +1.3316337951E-002  -5.5668187141E-001 -2.1069914103E-001 
7900000000.000 -8.7454259396E-001 +2.6640680432E-001  +1.7101292610E+000 +7.5750201941E-001  +1.2968568131E-002 +1.3665095903E-002  -5.6350964308E-001 -2.0680364966E-001 
8000000000.000 -8.7332147360E-001 +2.7365997434E-001  +1.6915037632E+000 +7.2111630440E-001  +1.2953238562E-002 +1.4033017680E-002  -5.6958812475E-001 -2.0256590843E-001 
8100000000.000 -8.7144488096E-001 +2.8087508678E-001  +1.6748251915E+000 +6.8377542496E-001  +1.2958033942E-002 +1.4353845268E-002  -5.7667982578E-001 -1.9854356349E-001 
8200000000.000 -8.7000614405E-001 +2.8786560893E-001  +1.6564168930E+000 +6.4972066879E-001  +1.2923452072E-002 +1.4769363217E-002  -5.8261471987E-001 -1.9397015870E-001 
8300000000.000 -8.6820793152E-001 +2.9491898417E-001  +1.6375377178E+000 +6.1409753561E-001  +1.2936659157E-002 +1.5098431148E-002  -5.8962136507E-001 -1.8983903527E-001 
8400000000.000 -8.6634027958E-001 +3.0190110207E-001  +1.6197592020E+000 +5.8045095205E-001  +1.2950293720E-002 +1.5468683094E-002  -5.9595692158E-001 -1.8609291315E-001 
8500000000.000 -8.6462855339E-001 +3.0873203278E-001  +1.6002954245E+000 +5.4851150513E-001  +1.2975828722E-002 +1.5885403380E-002  -6.0209548473E-001 -1.8143327534E-001 
8600000000.000 -8.6276656389E-001 +3.1572240591E-001  +1.5823706388E+000 +5.1730340719E-001  +1.3081075624E-002 +1.6229491681E-002  -6.0821574926E-001 -1.7704808712E-001 
8700000000.000 -8.6106127501E-001 +3.2264497876E-001  +1.5635688305E+000 +4.8728814721E-001  +1.3128080405E-002 +1.6598701477E-002  -6.1430096626E-001 -1.7213554680E-001 
8800000000.000 -8.5923314095E-001 +3.2966032624E-001  +1.5458265543E+000 +4.5860144496E-001  +1.3199694455E-002 +1.6975548118E-002  -6.2008917332E-001 -1.6747581959E-001 
8900000000.000 -8.5719734430E-001 +3.3684647083E-001  +1.5277595520E+000 +4.2980962992E-001  +1.3303514570E-002 +1.7346229404E-002  -6.2594377995E-001 -1.6276288033E-001 
9000000000.000 -8.5499995947E-001 +3.4382933378E-001  +1.5094791651E+000 +4.0260067582E-001  +1.3450451195E-002 +1.7678452656E-002  -6.3128030300E-001 -1.5805691481E-001 
9100000000.000 -8.5283017159E-001 +3.5072633624E-001  +1.4908467531E+000 +3.7590897083E-001  +1.3553959318E-002 +1.8031287938E-002  -6.3672786951E-001 -1.5263029933E-001 
9200000000.000 -8.5055452585E-001 +3.5761994123E-001  +1.4737166166E+000 +3.4868800640E-001  +1.3646837324E-002 +1.8353099003E-002  -6.4240717888E-001 -1.4772857726E-001 
9300000000.000 -8.4839963913E-001 +3.6457359791E-001  +1.4556168318E+000 +3.2453948259E-001  +1.3792945072E-002 +1.8727010116E-002  -6.4725404978E-001 -1.4207464457E-001 
9400000000.000 -8.4599888325E-001 +3.7139737606E-001  +1.4378621578E+000 +2.9894304276E-001  +1.3889641501E-002 +1.9028404728E-002  -6.5285456181E-001 -1.3676264882E-001 
9500000000.000 -8.4336876869E-001 +3.7817955017E-001  +1.4204211235E+000 +2.7606412768E-001  +1.4012970030E-002 +1.9367979839E-002  -6.5748262405E-001 -1.3190840185E-001 
9600000000.000 -8.4105366468E-001 +3.8451790810E-001  +1.4022032022E+000 +2.5140407681E-001  +1.4039914124E-002 +1.9723488018E-002  -6.6328656673E-001 -1.2706838548E-001 
9700000000.000 -8.3840835094E-001 +3.9150521159E-001  +1.3840126991E+000 +2.3087868094E-001  +1.4240408316E-002 +2.0260071382E-002  -6.6781198978E-001 -1.2143845111E-001 
9800000000.000 -8.3605599403E-001 +3.9826831222E-001  +1.3674068451E+000 +2.0935024321E-001  +1.4660925604E-002 +2.0639432594E-002  -6.7280524969E-001 -1.1579113454E-001 
9900000000.000 -8.3331239223E-001 +4.0530186892E-001  +1.3502256870E+000 +1.8730108440E-001  +1.4913455583E-002 +2.0758243278E-002  -6.7789649963E-001 -1.0987903178E-001 
10000000000.000 -8.3055961132E-001 +4.1217756271E-001  +1.3324396610E+000 +1.6691176593E-001  +1.5026456676E-002 +2.1028423682E-002  -6.8245595694E-001 -1.0399653763E-001 
10100000000.000 -8.2761251926E-001 +4.1894438863E-001  +1.3152405024E+000 +1.4655044675E-001  +1.5209373087E-002 +2.1312212572E-002  -6.8696427345E-001 -9.8440751433E-002 
10200000000.000 -8.2460272312E-001 +4.2564520240E-001  +1.2979285717E+000 +1.2789276242E-001  +1.5388089232E-002 +2.1590182558E-002  -6.9092589617E-001 -9.2768408358E-002 
10300000000.000 -8.2161116600E-001 +4.3231940269E-001  +1.2809177637E+000 +1.0927724093E-001  +1.5585757792E-002 +2.1889952943E-002  -6.9501996040E-001 -8.6957246065E-002 
10400000000.000 -8.1860941648E-001 +4.3902343512E-001  +1.2636524439E+000 +9.1191582382E-002  +1.5801014379E-002 +2.2184772417E-002  -6.9901233912E-001 -8.0484919250E-002 
10500000000.000 -8.1563311815E-001 +4.4557505846E-001  +1.2472153902E+000 +7.3611885309E-002  +1.5969377011E-002 +2.2408932447E-002  -7.0326381922E-001 -7.4670933187E-002 
10600000000.000 -8.1265908480E-001 +4.5221948624E-001  +1.2299739122E+000 +5.7354182005E-002  +1.6154402867E-002 +2.2738270462E-002  -7.0712512732E-001 -6.8302363157E-002 
10700000000.000 -8.0964195728E-001 +4.5881679654E-001  +1.2133791447E+000 +4.0359146893E-002  +1.6365405172E-002 +2.3067776114E-002  -7.1133768559E-001 -6.2236923724E-002 
10800000000.000 -8.0650377274E-001 +4.6554037929E-001  +1.1969584227E+000 +2.5452697650E-002  +1.6615472734E-002 +2.3372627795E-002  -7.1484774351E-001 -5.6118547916E-002 
10900000000.000 -8.0306136608E-001 +4.7261565924E-001  +1.1808593273E+000 +9.4949612394E-003  +1.6857987270E-002 +2.3642493412E-002  -7.1855747700E-001 -4.9598228186E-002 
11000000000.000 -7.9938316345E-001 +4.7900390625E-001  +1.1646608114E+000 -4.8808217980E-003  +1.7180155963E-002 +2.3912237957E-002  -7.2155195475E-001 -4.3670635670E-002 
11100000000.000 -7.9596018791E-001 +4.8544043303E-001  +1.1477239132E+000 -1.9440069795E-002  +1.7370153219E-002 +2.4137772620E-002  -7.2528713942E-001 -3.7456985563E-002 
11200000000.000 -7.9253768921E-001 +4.9176120758E-001  +1.1325241327E+000 -3.2672028989E-002  +1.7613612115E-002 +2.4381320924E-002  -7.2860103846E-001 -3.2136015594E-002 
11300000000.000 -7.8921550512E-001 +4.9836769700E-001  +1.1166089773E+000 -4.4724795967E-002  +1.7876364291E-002 +2.4688381702E-002  -7.3149365187E-001 -2.6274379343E-002 
11400000000.000 -7.8476160765E-001 +5.0528442860E-001  +1.1034168005E+000 -5.9509761631E-002  +1.8209096044E-002 +2.4924591184E-002  -7.3421949148E-001 -2.1192273125E-002 
