!Data measured by Modelithics Inc.  support@modelithics.com  813-866-6335   Tampa FL USA
!  2-Port S-parameters saved by WinCal
! VAR MeasName=S-Parameters (CALIBRATED_DATA) read from VNA (N5247A)
! VAR MeasDate=6/27/2013 3:20:12 PM
! VAR NAME=Measurement 16
! VAR FILENAME=2p5mm_task1_12p1Vds_m2p82Vgs_50mA_25C_S8.s2p
! VAR DATE=6/27/2013 3:20:12 PM
! VAR PHYS_PORTS=1,2
!
# Hz S RI R 50
200000000.000 +7.1680325270E-001 -6.4192265272E-001  -1.7911399841E+001 +8.1979389191E+000  +6.4732525498E-003 +1.4804535545E-002  +6.6850468516E-002 -1.8483993411E-001 
300000000.000 +4.7529134154E-001 -8.1649184227E-001  -1.4992727280E+001 +1.0228487015E+001  +1.2077394873E-002 +1.8723212183E-002  -2.3450427689E-003 -2.4187047780E-001 
400000000.000 +2.3878593743E-001 -8.9939236641E-001  -1.2158037186E+001 +1.1279723167E+001  +1.7622338608E-002 +2.0391423255E-002  -7.3360815644E-002 -2.6933646202E-001 
500000000.000 +3.3160537481E-002 -9.1488891840E-001  -9.6836824417E+000 +1.1492578506E+001  +2.2272534668E-002 +2.0648136735E-002  -1.3004301488E-001 -2.7750355005E-001 
600000000.000 -1.3473311067E-001 -8.9668965340E-001  -7.6372241974E+000 +1.1297012329E+001  +2.6200590655E-002 +2.0063905045E-002  -1.7917630076E-001 -2.7709165215E-001 
700000000.000 -2.7273705602E-001 -8.5734999180E-001  -5.9925408363E+000 +1.0852337837E+001  +2.9233096167E-002 +1.8937172368E-002  -2.1968294680E-001 -2.6829916239E-001 
800000000.000 -3.7975203991E-001 -8.0986738205E-001  -4.7121291161E+000 +1.0305355072E+001  +3.1671345234E-002 +1.7704987898E-002  -2.4974027276E-001 -2.5958895683E-001 
900000000.000 -4.6477699280E-001 -7.5872677565E-001  -3.6610853672E+000 +9.7314357758E+000  +3.3503774554E-002 +1.6367970034E-002  -2.7536231279E-001 -2.5000506639E-001 
1000000000.000 -5.3314268589E-001 -7.0806974173E-001  -2.8425164223E+000 +9.1411008835E+000  +3.4929007292E-002 +1.5180837363E-002  -2.9587140679E-001 -2.3892295361E-001 
1100000000.000 -5.8861917257E-001 -6.5970581770E-001  -2.1874890327E+000 +8.5850906372E+000  +3.6117270589E-002 +1.3902162202E-002  -3.1279119849E-001 -2.2868344188E-001 
1200000000.000 -6.3328909874E-001 -6.1455953121E-001  -1.6537144184E+000 +8.0718793869E+000  +3.7078578025E-002 +1.2747406028E-002  -3.2658460736E-001 -2.1987552941E-001 
1300000000.000 -6.6990196705E-001 -5.7157522440E-001  -1.2108020782E+000 +7.5820388794E+000  +3.7760499865E-002 +1.1578732170E-002  -3.3948257565E-001 -2.1131172776E-001 
1400000000.000 -7.0057868958E-001 -5.3178238869E-001  -8.4469765425E-001 +7.1501622200E+000  +3.8343362510E-002 +1.0541300289E-002  -3.5001569986E-001 -2.0435801148E-001 
1500000000.000 -7.2515696287E-001 -4.9521005154E-001  -5.4634016752E-001 +6.7427039146E+000  +3.8735158741E-002 +9.5929726958E-003  -3.5888913274E-001 -1.9741049409E-001 
1600000000.000 -7.4591583014E-001 -4.6112596989E-001  -2.9219284654E-001 +6.3712496758E+000  +3.9057753980E-002 +8.6727840826E-003  -3.6700567603E-001 -1.9126960635E-001 
1700000000.000 -7.6309078932E-001 -4.3046554923E-001  -8.6246185005E-002 +6.0238070488E+000  +3.9263341576E-002 +7.8634731472E-003  -3.7412434816E-001 -1.8546184897E-001 
1800000000.000 -7.7841210365E-001 -4.0131276846E-001  +1.0035460442E-001 +5.7088294029E+000  +3.9459850639E-002 +7.0196688175E-003  -3.8122448325E-001 -1.8148474395E-001 
1900000000.000 -7.9152923822E-001 -3.7465137243E-001  +2.5137260556E-001 +5.4148030281E+000  +3.9501212537E-002 +6.3521764241E-003  -3.8777095079E-001 -1.7661306262E-001 
2000000000.000 -8.0352979898E-001 -3.4947517514E-001  +3.8056930900E-001 +5.1484103203E+000  +3.9543841034E-002 +5.7104174048E-003  -3.9352607727E-001 -1.7258270085E-001 
2100000000.000 -8.1360560656E-001 -3.2552343607E-001  +4.9825376272E-001 +4.9002137184E+000  +3.9641235024E-002 +5.1038134843E-003  -3.9890524745E-001 -1.6946800053E-001 
2200000000.000 -8.2202315331E-001 -3.0313354731E-001  +5.9901189804E-001 +4.6691751480E+000  +3.9610162377E-002 +4.4441111386E-003  -4.0434414148E-001 -1.6647717357E-001 
2300000000.000 -8.3030641079E-001 -2.8167685866E-001  +6.8534404039E-001 +4.4544887543E+000  +3.9547376335E-002 +3.8892757148E-003  -4.0968075395E-001 -1.6339184344E-001 
2400000000.000 -8.3633267879E-001 -2.6127639413E-001  +7.6120293140E-001 +4.2501125336E+000  +3.9393857121E-002 +3.3252856229E-003  -4.1474270821E-001 -1.6041162610E-001 
2500000000.000 -8.4171968699E-001 -2.4253617227E-001  +8.2611674070E-001 +4.0626673698E+000  +3.9217378944E-002 +2.8598122299E-003  -4.1926157475E-001 -1.5770754218E-001 
2600000000.000 -8.4695833921E-001 -2.2495675087E-001  +8.8381350040E-001 +3.8876428604E+000  +3.9016515017E-002 +2.4805942085E-003  -4.2384532094E-001 -1.5568573773E-001 
2700000000.000 -8.5169017315E-001 -2.0773038268E-001  +9.3685585260E-001 +3.7208917141E+000  +3.8899246603E-002 +2.1434030496E-003  -4.2866823077E-001 -1.5403199196E-001 
2800000000.000 -8.5579025745E-001 -1.9144622982E-001  +9.7985911369E-001 +3.5635545254E+000  +3.8806613535E-002 +1.7608533381E-003  -4.3354150653E-001 -1.5183818340E-001 
2900000000.000 -8.5914880037E-001 -1.7555807531E-001  +1.0199961662E+000 +3.4190025330E+000  +3.8644187152E-002 +1.3834664132E-003  -4.3773201108E-001 -1.5004876256E-001 
3000000000.000 -8.6222159863E-001 -1.6070988774E-001  +1.0549347401E+000 +3.2788388729E+000  +3.8465905935E-002 +1.0396287544E-003  -4.4266998768E-001 -1.4826108515E-001 
3100000000.000 -8.6528712511E-001 -1.4634451270E-001  +1.0849140882E+000 +3.1465909481E+000  +3.8240410388E-002 +6.6344323568E-004  -4.4757583737E-001 -1.4649109542E-001 
3200000000.000 -8.6746531725E-001 -1.3259473443E-001  +1.1133813858E+000 +3.0214786530E+000  +3.7956617773E-002 +3.7527072709E-004  -4.5234954357E-001 -1.4513790607E-001 
3300000000.000 -8.6966001987E-001 -1.1953768879E-001  +1.1368860006E+000 +2.9019598961E+000  +3.7690181285E-002 +1.0580209346E-004  -4.5717495680E-001 -1.4361363649E-001 
3400000000.000 -8.7163019180E-001 -1.0719463229E-001  +1.1554527283E+000 +2.7886686325E+000  +3.7470877171E-002 -3.7353562220E-005  -4.6177440882E-001 -1.4193184674E-001 
3500000000.000 -8.7406641245E-001 -9.5153309405E-002  +1.1720237732E+000 +2.6824052334E+000  +3.7313766778E-002 -2.8591425507E-004  -4.6673339605E-001 -1.4040771127E-001 
3600000000.000 -8.7617009878E-001 -8.2982078195E-002  +1.1882852316E+000 +2.5789361000E+000  +3.7080600858E-002 -5.6000391487E-004  -4.7167205811E-001 -1.3868612051E-001 
3700000000.000 -8.7794232368E-001 -7.1030102670E-002  +1.1993037462E+000 +2.4819297791E+000  +3.6865640432E-002 -8.3648320287E-004  -4.7629451752E-001 -1.3688667119E-001 
3800000000.000 -8.7934249640E-001 -5.9151094407E-002  +1.2097837925E+000 +2.3903150558E+000  +3.6585219204E-002 -1.1034406489E-003  -4.8064893484E-001 -1.3524693251E-001 
3900000000.000 -8.8025325537E-001 -4.8093743622E-002  +1.2191905975E+000 +2.3024182320E+000  +3.6245234311E-002 -1.3250914635E-003  -4.8540720344E-001 -1.3396210968E-001 
4000000000.000 -8.8124167919E-001 -3.7479449064E-002  +1.2276507616E+000 +2.2171249390E+000  +3.5901810974E-002 -1.4971111668E-003  -4.9050799012E-001 -1.3236561418E-001 
4100000000.000 -8.8195729256E-001 -2.7102438733E-002  +1.2335325480E+000 +2.1351895332E+000  +3.5544268787E-002 -1.6211402835E-003  -4.9529555440E-001 -1.3065144420E-001 
4200000000.000 -8.8297826052E-001 -1.7067743465E-002  +1.2385565042E+000 +2.0582089424E+000  +3.5222403705E-002 -1.7046541907E-003  -5.0017148256E-001 -1.2893617153E-001 
4300000000.000 -8.8385105133E-001 -7.0392298512E-003  +1.2421172857E+000 +1.9828220606E+000  +3.4944225103E-002 -1.7926919973E-003  -5.0503921509E-001 -1.2717147171E-001 
4400000000.000 -8.8453817368E-001 +2.9481453821E-003  +1.2447664738E+000 +1.9108625650E+000  +3.4660849720E-002 -1.8812079215E-003  -5.1007831097E-001 -1.2531910837E-001 
4500000000.000 -8.8496869802E-001 +1.2742476538E-002  +1.2470875978E+000 +1.8414222002E+000  +3.4378744662E-002 -1.9750820938E-003  -5.1494717598E-001 -1.2351877242E-001 
4600000000.000 -8.8523960114E-001 +2.2149927914E-002  +1.2463747263E+000 +1.7744467258E+000  +3.4059911966E-002 -2.0821455400E-003  -5.1971954107E-001 -1.2152779847E-001 
4700000000.000 -8.8538259268E-001 +3.1225511804E-002  +1.2464731932E+000 +1.7097301483E+000  +3.3715523779E-002 -2.1505374461E-003  -5.2477121353E-001 -1.1969467998E-001 
4800000000.000 -8.8568180799E-001 +4.0179625154E-002  +1.2445145845E+000 +1.6477113962E+000  +3.3384408802E-002 -2.2165169939E-003  -5.2987265587E-001 -1.1770048738E-001 
4900000000.000 -8.8592153788E-001 +4.9001369625E-002  +1.2419729233E+000 +1.5895720720E+000  +3.3047303557E-002 -2.2399132140E-003  -5.3459501266E-001 -1.1553526670E-001 
5000000000.000 -8.8613426685E-001 +5.7609759271E-002  +1.2389973402E+000 +1.5312222242E+000  +3.2710276544E-002 -2.2323112935E-003  -5.3978580236E-001 -1.1335272342E-001 
5100000000.000 -8.8630342484E-001 +6.6311433911E-002  +1.2354794741E+000 +1.4772291183E+000  +3.2397717237E-002 -2.2135030013E-003  -5.4445838928E-001 -1.1102023721E-001 
5200000000.000 -8.8631021976E-001 +7.4713110924E-002  +1.2308006287E+000 +1.4231950045E+000  +3.2053463161E-002 -2.1884292364E-003  -5.4949259758E-001 -1.0833739489E-001 
5300000000.000 -8.8641613722E-001 +8.3223097026E-002  +1.2260977030E+000 +1.3729116917E+000  +3.1771518290E-002 -2.1618683822E-003  -5.5413705111E-001 -1.0594162345E-001 
5400000000.000 -8.8617753983E-001 +9.1655224562E-002  +1.2215574980E+000 +1.3228121996E+000  +3.1458176672E-002 -2.1430645138E-003  -5.5906260014E-001 -1.0342832655E-001 
5500000000.000 -8.8584166765E-001 +9.9804870784E-002  +1.2161178589E+000 +1.2741194963E+000  +3.1154897064E-002 -2.1662462968E-003  -5.6403964758E-001 -1.0105960816E-001 
5600000000.000 -8.8556647301E-001 +1.0794515908E-001  +1.2096809149E+000 +1.2286254168E+000  +3.0793936923E-002 -2.0899986848E-003  -5.6890398264E-001 -9.8145186901E-002 
5700000000.000 -8.8505256176E-001 +1.1581868678E-001  +1.2033619881E+000 +1.1827579737E+000  +3.0445773154E-002 -2.0357922185E-003  -5.7393318415E-001 -9.5324769616E-002 
5800000000.000 -8.8483196497E-001 +1.2358281016E-001  +1.1961306334E+000 +1.1394193172E+000  +3.0126929283E-002 -1.9078243058E-003  -5.7887315750E-001 -9.2181153595E-002 
5900000000.000 -8.8435506821E-001 +1.3137920201E-001  +1.1885749102E+000 +1.0976879597E+000  +2.9807640240E-002 -1.8001019489E-003  -5.8360582590E-001 -8.9104272425E-002 
6000000000.000 -8.8388931751E-001 +1.3903236389E-001  +1.1809610128E+000 +1.0574619770E+000  +2.9502909631E-002 -1.6549126012E-003  -5.8823317289E-001 -8.6277775466E-002 
6100000000.000 -8.8332986832E-001 +1.4666108787E-001  +1.1727236509E+000 +1.0174394846E+000  +2.9238406569E-002 -1.4969895128E-003  -5.9282714128E-001 -8.3210043609E-002 
6200000000.000 -8.8289421797E-001 +1.5425226092E-001  +1.1638263464E+000 +9.7976344824E-001  +2.9002768919E-002 -1.4067275915E-003  -5.9709143639E-001 -7.9954199493E-002 
6300000000.000 -8.8222920895E-001 +1.6192272305E-001  +1.1551491022E+000 +9.4331777096E-001  +2.8731556609E-002 -1.3257673709E-003  -6.0158312321E-001 -7.6541490853E-002 
6400000000.000 -8.8164275885E-001 +1.6954173148E-001  +1.1463434696E+000 +9.0895062685E-001  +2.8446439654E-002 -1.2115719728E-003  -6.0584145784E-001 -7.3242187500E-002 
6500000000.000 -8.8090419769E-001 +1.7691764235E-001  +1.1372982264E+000 +8.7421345711E-001  +2.8111182153E-002 -1.0777477873E-003  -6.1066901684E-001 -6.9925993681E-002 
6600000000.000 -8.7996345758E-001 +1.8417528272E-001  +1.1292513609E+000 +8.4091502428E-001  +2.7801668271E-002 -9.3622121494E-004  -6.1512547731E-001 -6.6856287420E-002 
6700000000.000 -8.7917822599E-001 +1.9130319357E-001  +1.1191470623E+000 +8.0941557884E-001  +2.7525421232E-002 -7.4106850661E-004  -6.1941289902E-001 -6.3028238714E-002 
6800000000.000 -8.7831521034E-001 +1.9852548838E-001  +1.1106996536E+000 +7.7800881863E-001  +2.7240334079E-002 -5.8812124189E-004  -6.2382358313E-001 -5.9617519379E-002 
6900000000.000 -8.7749934196E-001 +2.0562149584E-001  +1.1007742882E+000 +7.4793529510E-001  +2.6935830712E-002 -3.6623992492E-004  -6.2797993422E-001 -5.5475968868E-002 
7000000000.000 -8.7646770477E-001 +2.1285426617E-001  +1.0913865566E+000 +7.1844202280E-001  +2.6673329994E-002 -1.5620305203E-004  -6.3228040934E-001 -5.1594171673E-002 
7100000000.000 -8.7534075975E-001 +2.2000482678E-001  +1.0824071169E+000 +6.8999975920E-001  +2.6456682011E-002 +5.8380101109E-005  -6.3660949469E-001 -4.8205878586E-002 
7200000000.000 -8.7427592278E-001 +2.2709472477E-001  +1.0717803240E+000 +6.6251474619E-001  +2.6198128238E-002 +2.9294507112E-004  -6.4076185226E-001 -4.4196344912E-002 
7300000000.000 -8.7304204702E-001 +2.3423007131E-001  +1.0620284081E+000 +6.3555407524E-001  +2.5957770646E-002 +5.0082243979E-004  -6.4467334747E-001 -4.0463209152E-002 
7400000000.000 -8.7173241377E-001 +2.4129892886E-001  +1.0523099899E+000 +6.0972326994E-001  +2.5738904253E-002 +7.3210551636E-004  -6.4883112907E-001 -3.6371000111E-002 
7500000000.000 -8.7054157257E-001 +2.4830137193E-001  +1.0426030159E+000 +5.8492809534E-001  +2.5513051078E-002 +9.8191655707E-004  -6.5263527632E-001 -3.1996797770E-002 
7600000000.000 -8.6930441856E-001 +2.5515341759E-001  +1.0327433348E+000 +5.6061249971E-001  +2.5286154822E-002 +1.2330852915E-003  -6.5659201145E-001 -2.7797674760E-002 
7700000000.000 -8.6796647310E-001 +2.6204207540E-001  +1.0229796171E+000 +5.3694057465E-001  +2.5119183585E-002 +1.4868624276E-003  -6.6054695845E-001 -2.3808890954E-002 
7800000000.000 -8.6657220125E-001 +2.6866599917E-001  +1.0120468140E+000 +5.1324725151E-001  +2.4892041460E-002 +1.7604707973E-003  -6.6455614567E-001 -1.9386608154E-002 
7900000000.000 -8.6539161205E-001 +2.7540153265E-001  +1.0025118589E+000 +4.9136292934E-001  +2.4714862928E-002 +2.0016236231E-003  -6.6793930531E-001 -1.5434422530E-002 
8000000000.000 -8.6413359642E-001 +2.8238636255E-001  +9.9182540178E-001 +4.6959555149E-001  +2.4483352900E-002 +2.2813889664E-003  -6.7170095444E-001 -1.0705611669E-002 
8100000000.000 -8.6235874891E-001 +2.8930675983E-001  +9.8192131519E-001 +4.4876316190E-001  +2.4345368147E-002 +2.5437287986E-003  -6.7538869381E-001 -5.9441737831E-003 
8200000000.000 -8.6084419489E-001 +2.9603487253E-001  +9.7199904919E-001 +4.2864552140E-001  +2.4157902226E-002 +2.8905004729E-003  -6.7906355858E-001 -1.3633602066E-003 
8300000000.000 -8.5914671421E-001 +3.0276337266E-001  +9.6130704880E-001 +4.0834060311E-001  +2.4011023343E-002 +3.1577756163E-003  -6.8288993835E-001 +3.2585200388E-003 
8400000000.000 -8.5727035999E-001 +3.0948150158E-001  +9.5147705078E-001 +3.8947489858E-001  +2.3882484064E-002 +3.4803384915E-003  -6.8622756004E-001 +7.4433502741E-003 
8500000000.000 -8.5549926758E-001 +3.1603670120E-001  +9.4138324261E-001 +3.7016430497E-001  +2.3752130568E-002 +3.7827542983E-003  -6.8990749121E-001 +1.1902177706E-002 
8600000000.000 -8.5370755196E-001 +3.2274585962E-001  +9.3099254370E-001 +3.5229119658E-001  +2.3684144020E-002 +4.0996866301E-003  -6.9288659096E-001 +1.6700750217E-002 
8700000000.000 -8.5197257996E-001 +3.2937011123E-001  +9.2071479559E-001 +3.3516347408E-001  +2.3568168283E-002 +4.3835286051E-003  -6.9598197937E-001 +2.1488988772E-002 
8800000000.000 -8.5020881891E-001 +3.3614006639E-001  +9.1020154953E-001 +3.1792017817E-001  +2.3485010490E-002 +4.7247726470E-003  -6.9938838482E-001 +2.6283361018E-002 
8900000000.000 -8.4822732210E-001 +3.4303385019E-001  +9.0036481619E-001 +3.0182665586E-001  +2.3428613320E-002 +5.0468156114E-003  -7.0223945379E-001 +3.1056860462E-002 
9000000000.000 -8.4610837698E-001 +3.4967589378E-001  +8.9001345634E-001 +2.8594848514E-001  +2.3392410949E-002 +5.3205159493E-003  -7.0504742861E-001 +3.5606399179E-002 
9100000000.000 -8.4394776821E-001 +3.5634970665E-001  +8.8014441729E-001 +2.7061617374E-001  +2.3329202086E-002 +5.5967327207E-003  -7.0777350664E-001 +4.0631476790E-002 
9200000000.000 -8.4172075987E-001 +3.6302435398E-001  +8.7077826262E-001 +2.5514656305E-001  +2.3287294433E-002 +5.8976961300E-003  -7.1051245928E-001 +4.5740894973E-002 
9300000000.000 -8.3963209391E-001 +3.6962479353E-001  +8.6089384556E-001 +2.4076110125E-001  +2.3255594075E-002 +6.2042344362E-003  -7.1301907301E-001 +5.1090337336E-002 
9400000000.000 -8.3728170395E-001 +3.7621307373E-001  +8.5135161877E-001 +2.2618138790E-001  +2.3209555075E-002 +6.4798146486E-003  -7.1573275328E-001 +5.6209370494E-002 
9500000000.000 -8.3477640152E-001 +3.8273477554E-001  +8.4146857262E-001 +2.1240796149E-001  +2.3161664605E-002 +6.7633795552E-003  -7.1827423573E-001 +6.1089944094E-002 
9600000000.000 -8.3252042532E-001 +3.8888171315E-001  +8.3158439398E-001 +1.9824670255E-001  +2.3022886366E-002 +7.1046040393E-003  -7.2115510702E-001 +6.5744876862E-002 
9700000000.000 -8.2995778322E-001 +3.9565116167E-001  +8.2098621130E-001 +1.8638876081E-001  +2.3085331544E-002 +7.6036937535E-003  -7.2313916683E-001 +7.1280620992E-002 
9800000000.000 -8.2758897543E-001 +4.0218564868E-001  +8.1225103140E-001 +1.7380842566E-001  +2.3342700675E-002 +7.9190097749E-003  -7.2567844391E-001 +7.6420433819E-002 
9900000000.000 -8.2498127222E-001 +4.0899431705E-001  +8.0276083946E-001 +1.6120837629E-001  +2.3423563689E-002 +8.0266697332E-003  -7.2781997919E-001 +8.2018211484E-002 
10000000000.000 -8.2229346037E-001 +4.1568243504E-001  +7.9308819771E-001 +1.4949022233E-001  +2.3377384990E-002 +8.2639139146E-003  -7.2996658087E-001 +8.7322548032E-002 
10100000000.000 -8.1940370798E-001 +4.2222559452E-001  +7.8384721279E-001 +1.3746456802E-001  +2.3426104337E-002 +8.5127959028E-003  -7.3214823008E-001 +9.2410504818E-002 
10200000000.000 -8.1649124622E-001 +4.2868456244E-001  +7.7439576387E-001 +1.2626412511E-001  +2.3434087634E-002 +8.7704937905E-003  -7.3392313719E-001 +9.7587801516E-002 
10300000000.000 -8.1355327368E-001 +4.3517136574E-001  +7.6522105932E-001 +1.1558134854E-001  +2.3474171758E-002 +9.0659148991E-003  -7.3548251390E-001 +1.0299537331E-001 
10400000000.000 -8.1061166525E-001 +4.4165369868E-001  +7.5586038828E-001 +1.0488160700E-001  +2.3552829400E-002 +9.3169296160E-003  -7.3710018396E-001 +1.0882585496E-001 
10500000000.000 -8.0775517225E-001 +4.4804587960E-001  +7.4672216177E-001 +9.4609975815E-002  +2.3566713557E-002 +9.5404945314E-003  -7.3903352022E-001 +1.1445770413E-001 
10600000000.000 -8.0483645201E-001 +4.5449835062E-001  +7.3757642508E-001 +8.4747187793E-002  +2.3576254025E-002 +9.8314974457E-003  -7.4064058065E-001 +1.2001408637E-001 
10700000000.000 -8.0190932751E-001 +4.6084755659E-001  +7.2880190611E-001 +7.4959777296E-002  +2.3631975055E-002 +1.0116040707E-002  -7.4238246679E-001 +1.2535114586E-001 
10800000000.000 -7.9887920618E-001 +4.6738898754E-001  +7.1952909231E-001 +6.5653465688E-002  +2.3731488734E-002 +1.0407339782E-002  -7.4398452044E-001 +1.3093920052E-001 
10900000000.000 -7.9551625252E-001 +4.7425726056E-001  +7.1087861061E-001 +5.6293170899E-002  +2.3822696880E-002 +1.0672245175E-002  -7.4538284540E-001 +1.3668352365E-001 
11000000000.000 -7.9191386700E-001 +4.8043817282E-001  +7.0183980465E-001 +4.7663159668E-002  +2.3924367502E-002 +1.0949091986E-002  -7.4656009674E-001 +1.4203976095E-001 
11100000000.000 -7.8857594728E-001 +4.8673817515E-001  +6.9259017706E-001 +3.8925994188E-002  +2.4019431323E-002 +1.1169899255E-002  -7.4817472696E-001 +1.4753881097E-001 
11200000000.000 -7.8528428078E-001 +4.9292147160E-001  +6.8435150385E-001 +3.1427331269E-002  +2.4106990546E-002 +1.1451977305E-002  -7.4943786860E-001 +1.5225213766E-001 
11300000000.000 -7.8204143047E-001 +4.9935856462E-001  +6.7601239681E-001 +2.3645384237E-002  +2.4221362546E-002 +1.1739605106E-002  -7.5089091063E-001 +1.5728519857E-001 
11400000000.000 -7.7769100666E-001 +5.0615227222E-001  +6.6871958971E-001 +1.4967645518E-002  +2.4415483698E-002 +1.1948865838E-002  -7.5143253803E-001 +1.6253110766E-001 
