!Data measured by Modelithics Inc.  support@modelithics.com  813-866-6335   Tampa FL USA
!  2-Port S-parameters saved by WinCal
! VAR MeasName=S-Parameters (CALIBRATED_DATA) read from VNA (N5247A)
! VAR MeasDate=6/27/2013 3:17:11 PM
! VAR NAME=Measurement 3
! VAR FILENAME=2p5mm_task1_28p1Vds_m2p92Vgs_50mA_25C_S8.s2p
! VAR DATE=6/27/2013 3:17:11 PM
! VAR PHYS_PORTS=1,2
!
# Hz S RI R 50
200000000.000 +8.1762194633E-001 -5.2863264084E-001  -2.1157690048E+001 +7.8103680611E+000  +2.9368009418E-003 +8.4833949804E-003  +3.8607221842E-001 -1.3456684351E-001 
300000000.000 +6.4459699392E-001 -7.1222859621E-001  -1.8758127213E+001 +1.0176252365E+001  +5.7524712756E-003 +1.1357396841E-002  +3.4773224592E-001 -1.9004574418E-001 
400000000.000 +4.5528087020E-001 -8.3380717039E-001  -1.6236314774E+001 +1.1925792694E+001  +8.8844839483E-003 +1.3134445995E-002  +2.9969576001E-001 -2.2974193096E-001 
500000000.000 +2.7029097080E-001 -8.9591830969E-001  -1.3690823555E+001 +1.2793531418E+001  +1.1816662736E-002 +1.3982327655E-002  +2.5826153159E-001 -2.5402367115E-001 
600000000.000 +1.0501743108E-001 -9.2178702354E-001  -1.1383372307E+001 +1.3144199371E+001  +1.4503281564E-002 +1.4256492257E-002  +2.1762908995E-001 -2.7108961344E-001 
700000000.000 -4.3541699648E-002 -9.1887289286E-001  -9.3526344299E+000 +1.3117033005E+001  +1.6785915941E-002 +1.3996853493E-002  +1.8049478531E-001 -2.7889433503E-001 
800000000.000 -1.6759316623E-001 -8.9793443680E-001  -7.6699442863E+000 +1.2852289200E+001  +1.8706040457E-002 +1.3542542234E-002  +1.5148243308E-001 -2.8525650501E-001 
900000000.000 -2.7178058028E-001 -8.6601823568E-001  -6.1962127686E+000 +1.2432881355E+001  +2.0304337144E-002 +1.2838530354E-002  +1.2430600077E-001 -2.8951635957E-001 
1000000000.000 -3.5986214876E-001 -8.2797312737E-001  -5.0047640800E+000 +1.1940407753E+001  +2.1515540779E-002 +1.2146096677E-002  +1.0158331692E-001 -2.8969225287E-001 
1100000000.000 -4.3396857381E-001 -7.8825354576E-001  -4.0095038414E+000 +1.1400479317E+001  +2.2581910715E-002 +1.1390587315E-002  +8.1856206059E-002 -2.8932908177E-001 
1200000000.000 -4.9585941434E-001 -7.4825328588E-001  -3.1814742088E+000 +1.0858181953E+001  +2.3491427302E-002 +1.0654525831E-002  +6.5736711025E-002 -2.8942281008E-001 
1300000000.000 -5.4868710041E-001 -7.0668321848E-001  -2.4541344643E+000 +1.0330410957E+001  +2.4203782901E-002 +9.7919125110E-003  +4.8234965652E-002 -2.9065647721E-001 
1400000000.000 -5.9330421686E-001 -6.6759222746E-001  -1.8539359570E+000 +9.8321781158E+000  +2.4791637436E-002 +9.0898200870E-003  +3.4680511802E-002 -2.9232233763E-001 
1500000000.000 -6.3007593155E-001 -6.2969070673E-001  -1.3515044451E+000 +9.3473768234E+000  +2.5192096829E-002 +8.3306552842E-003  +2.2198421881E-002 -2.9268226027E-001 
1600000000.000 -6.6131156683E-001 -5.9360104799E-001  -9.1821670532E-001 +8.8867492676E+000  +2.5495709851E-002 +7.5814398006E-003  +1.0414517485E-002 -2.9355272651E-001 
1700000000.000 -6.8754601479E-001 -5.6069993973E-001  -5.6401968002E-001 +8.4458007813E+000  +2.5637997314E-002 +6.9046732970E-003  -2.5256362278E-004 -2.9339149594E-001 
1800000000.000 -7.1123063564E-001 -5.2917271852E-001  -2.3016779125E-001 +8.0443115234E+000  +2.5763269514E-002 +6.2505924143E-003  -1.0922954418E-002 -2.9759138823E-001 
1900000000.000 -7.3212033510E-001 -5.0009101629E-001  +3.7971336395E-002 +7.6507229805E+000  +2.5763358921E-002 +5.8023137972E-003  -2.1744847298E-002 -2.9844591022E-001 
2000000000.000 -7.5107574463E-001 -4.7211185098E-001  +2.6871585846E-001 +7.3025221825E+000  +2.5792814791E-002 +5.3665777668E-003  -2.9932457954E-002 -3.0056664348E-001 
2100000000.000 -7.6731932163E-001 -4.4517230988E-001  +4.8204275966E-001 +6.9679164886E+000  +2.5854431093E-002 +4.9217240885E-003  -3.8805708289E-002 -3.0421149731E-001 
2200000000.000 -7.8155565262E-001 -4.1971766949E-001  +6.6262161732E-001 +6.6569256783E+000  +2.5839248672E-002 +4.4750315137E-003  -4.7145392746E-002 -3.0719405413E-001 
2300000000.000 -7.9480493069E-001 -3.9480927587E-001  +8.2549315691E-001 +6.3568696976E+000  +2.5856854394E-002 +4.0047983639E-003  -5.7031098753E-002 -3.1065550447E-001 
2400000000.000 -8.0495041609E-001 -3.7137052417E-001  +9.6507239342E-001 +6.0714888573E+000  +2.5646552444E-002 +3.5125382710E-003  -6.6702783108E-002 -3.1303063035E-001 
2500000000.000 -8.1439220905E-001 -3.4983465075E-001  +1.0848249197E+000 +5.8087038994E+000  +2.5438996032E-002 +3.2006145921E-003  -7.4639357626E-002 -3.1557175517E-001 
2600000000.000 -8.2312095165E-001 -3.2922786474E-001  +1.1949787140E+000 +5.5642013550E+000  +2.5236269459E-002 +2.9304639902E-003  -8.2428768277E-002 -3.1971174479E-001 
2700000000.000 -8.3098882437E-001 -3.0950266123E-001  +1.3001476526E+000 +5.3235754967E+000  +2.5056324899E-002 +2.6889601722E-003  -9.2223204672E-002 -3.2459077239E-001 
2800000000.000 -8.3832758665E-001 -2.9066711664E-001  +1.3830025196E+000 +5.0956563950E+000  +2.4910707027E-002 +2.4888524786E-003  -1.0187899321E-001 -3.2762819529E-001 
2900000000.000 -8.4453719854E-001 -2.7215057611E-001  +1.4581705332E+000 +4.8829751015E+000  +2.4746660143E-002 +2.2474317811E-003  -1.1103796959E-001 -3.3100527525E-001 
3000000000.000 -8.5015863180E-001 -2.5465020537E-001  +1.5247126818E+000 +4.6797542572E+000  +2.4550439790E-002 +2.0198905841E-003  -1.2064725906E-001 -3.3407071233E-001 
3100000000.000 -8.5547548532E-001 -2.3789510131E-001  +1.5838943720E+000 +4.4832677841E+000  +2.4288963526E-002 +1.7719998723E-003  -1.3093976676E-001 -3.3725959063E-001 
3200000000.000 -8.5983228683E-001 -2.2196467221E-001  +1.6340448856E+000 +4.2972078323E+000  +2.3977575824E-002 +1.6271114582E-003  -1.4068560302E-001 -3.3983442187E-001 
3300000000.000 -8.6420828104E-001 -2.0665273070E-001  +1.6766215563E+000 +4.1222510338E+000  +2.3679297417E-002 +1.5160606708E-003  -1.5011404455E-001 -3.4210699797E-001 
3400000000.000 -8.6808526516E-001 -1.9213406742E-001  +1.7114176750E+000 +3.9551334381E+000  +2.3474955931E-002 +1.5119663440E-003  -1.5882201493E-001 -3.4468671679E-001 
3500000000.000 -8.7225741148E-001 -1.7789028585E-001  +1.7455122471E+000 +3.7986159325E+000  +2.3355020210E-002 +1.3995822519E-003  -1.6860459745E-001 -3.4779089689E-001 
3600000000.000 -8.7596678734E-001 -1.6350275278E-001  +1.7750566006E+000 +3.6461200714E+000  +2.3159196600E-002 +1.2361892732E-003  -1.7817725241E-001 -3.5001948476E-001 
3700000000.000 -8.7900221348E-001 -1.4943781495E-001  +1.7996262312E+000 +3.5033318996E+000  +2.2966699675E-002 +1.0179477977E-003  -1.8744961917E-001 -3.5257098079E-001 
3800000000.000 -8.8154947758E-001 -1.3580967486E-001  +1.8229776621E+000 +3.3657085896E+000  +2.2608047351E-002 +8.1540073734E-004  -1.9678272307E-001 -3.5543605685E-001 
3900000000.000 -8.8383311033E-001 -1.2313139439E-001  +1.8424881697E+000 +3.2331230640E+000  +2.2194068879E-002 +7.7962427167E-004  -2.0702214539E-001 -3.5790842772E-001 
4000000000.000 -8.8617634773E-001 -1.1079017818E-001  +1.8586786985E+000 +3.1025440693E+000  +2.1859576926E-002 +7.8279769514E-004  -2.1766756475E-001 -3.6012569070E-001 
4100000000.000 -8.8812172413E-001 -9.8651751876E-002  +1.8707488775E+000 +2.9784488678E+000  +2.1501485258E-002 +7.9885049490E-004  -2.2814579308E-001 -3.6185672879E-001 
4200000000.000 -8.9017957449E-001 -8.6803369224E-002  +1.8788355589E+000 +2.8616633415E+000  +2.1231869236E-002 +8.4952876205E-004  -2.3821166158E-001 -3.6310696602E-001 
4300000000.000 -8.9196151495E-001 -7.5046077371E-002  +1.8861957788E+000 +2.7498478889E+000  +2.0964685827E-002 +8.5681030760E-004  -2.4801343679E-001 -3.6461326480E-001 
4400000000.000 -8.9351785183E-001 -6.3649363816E-002  +1.8917334080E+000 +2.6396031380E+000  +2.0645393059E-002 +8.5327960551E-004  -2.5891461968E-001 -3.6606168747E-001 
4500000000.000 -8.9484786987E-001 -5.2428074181E-002  +1.8966069221E+000 +2.5335767269E+000  +2.0337749273E-002 +8.6354650557E-004  -2.6950937510E-001 -3.6713942885E-001 
4600000000.000 -8.9594054222E-001 -4.1677027941E-002  +1.8964451551E+000 +2.4310154915E+000  +1.9961940125E-002 +9.3979539815E-004  -2.8027018905E-001 -3.6767178774E-001 
4700000000.000 -8.9705628157E-001 -3.1193641946E-002  +1.8954306841E+000 +2.3328516483E+000  +1.9632514566E-002 +1.0323375463E-003  -2.9080459476E-001 -3.6818352342E-001 
4800000000.000 -8.9814299345E-001 -2.0724361762E-002  +1.8916126490E+000 +2.2374763489E+000  +1.9316526130E-002 +1.1289241957E-003  -3.0173766613E-001 -3.6827662587E-001 
4900000000.000 -8.9908647537E-001 -1.0435074568E-002  +1.8855667114E+000 +2.1501255035E+000  +1.9016480073E-002 +1.2741858372E-003  -3.1146347523E-001 -3.6788600683E-001 
5000000000.000 -8.9987307787E-001 -4.1184949805E-004  +1.8819848299E+000 +2.0625765324E+000  +1.8720777705E-002 +1.3527855044E-003  -3.2209601998E-001 -3.6874613166E-001 
5100000000.000 -9.0068459511E-001 +9.4859832898E-003  +1.8744399548E+000 +1.9790598154E+000  +1.8408283591E-002 +1.5230021672E-003  -3.3265703917E-001 -3.6791154742E-001 
5200000000.000 -9.0125113726E-001 +1.9132178277E-002  +1.8660581112E+000 +1.8981755972E+000  +1.8089238554E-002 +1.6543403035E-003  -3.4320142865E-001 -3.6718592048E-001 
5300000000.000 -9.0179592371E-001 +2.8880381957E-002  +1.8588966131E+000 +1.8208651543E+000  +1.7805343494E-002 +1.7995139351E-003  -3.5371494293E-001 -3.6665111780E-001 
5400000000.000 -9.0215885639E-001 +3.8385119289E-002  +1.8485559225E+000 +1.7447991371E+000  +1.7490783706E-002 +1.9795726985E-003  -3.6431449652E-001 -3.6512538791E-001 
5500000000.000 -9.0235406160E-001 +4.7706384212E-002  +1.8381026983E+000 +1.6710087061E+000  +1.7154982314E-002 +2.1275328472E-003  -3.7479820848E-001 -3.6393463612E-001 
5600000000.000 -9.0265530348E-001 +5.6993965060E-002  +1.8246672153E+000 +1.6011005640E+000  +1.6859842464E-002 +2.3910044692E-003  -3.8506451249E-001 -3.6167588830E-001 
5700000000.000 -9.0270209312E-001 +6.6103331745E-002  +1.8126851320E+000 +1.5338233709E+000  +1.6591662541E-002 +2.6079092640E-003  -3.9484024048E-001 -3.5998839140E-001 
5800000000.000 -9.0282106400E-001 +7.5029879808E-002  +1.7989662886E+000 +1.4685693979E+000  +1.6333775595E-002 +2.8383207973E-003  -4.0513554215E-001 -3.5796979070E-001 
5900000000.000 -9.0274101496E-001 +8.3914928138E-002  +1.7847882509E+000 +1.4060626030E+000  +1.6025708988E-002 +3.0469477642E-003  -4.1510710120E-001 -3.5577669740E-001 
6000000000.000 -9.0251719952E-001 +9.2637807131E-002  +1.7717365026E+000 +1.3451544046E+000  +1.5768883750E-002 +3.2982963603E-003  -4.2522650957E-001 -3.5409837961E-001 
6100000000.000 -9.0235102177E-001 +1.0122701526E-001  +1.7568690777E+000 +1.2858506441E+000  +1.5517702326E-002 +3.5754158162E-003  -4.3525183201E-001 -3.5162064433E-001 
6200000000.000 -9.0227931738E-001 +1.0981209576E-001  +1.7405459881E+000 +1.2287497520E+000  +1.5285707079E-002 +3.8404851221E-003  -4.4508555532E-001 -3.4859883785E-001 
6300000000.000 -9.0201562643E-001 +1.1841166019E-001  +1.7241128683E+000 +1.1728445292E+000  +1.5033657663E-002 +4.0586595424E-003  -4.5519092679E-001 -3.4513995051E-001 
6400000000.000 -9.0171808004E-001 +1.2701636553E-001  +1.7071895599E+000 +1.1220597029E+000  +1.4790940098E-002 +4.3324586004E-003  -4.6390295029E-001 -3.4182885289E-001 
6500000000.000 -9.0134674311E-001 +1.3538181782E-001  +1.6887611151E+000 +1.0697686672E+000  +1.4503828250E-002 +4.6663773246E-003  -4.7399502993E-001 -3.3804783225E-001 
6600000000.000 -9.0061527491E-001 +1.4366149902E-001  +1.6734924316E+000 +1.0209994316E+000  +1.4306042343E-002 +4.9133729190E-003  -4.8299589753E-001 -3.3533081412E-001 
6700000000.000 -9.0005731583E-001 +1.5167164803E-001  +1.6538611650E+000 +9.7553545237E-001  +1.4053150080E-002 +5.2367309108E-003  -4.9169626832E-001 -3.3083522320E-001 
6800000000.000 -8.9945834875E-001 +1.5981134772E-001  +1.6382188797E+000 +9.2910027504E-001  +1.3824396767E-002 +5.5290875025E-003  -5.0109326839E-001 -3.2782196999E-001 
6900000000.000 -8.9875268936E-001 +1.6778989136E-001  +1.6208430529E+000 +8.8542443514E-001  +1.3583611697E-002 +5.8786659501E-003  -5.0984132290E-001 -3.2375773787E-001 
7000000000.000 -8.9800560474E-001 +1.7582683265E-001  +1.6037554741E+000 +8.4230202436E-001  +1.3342177495E-002 +6.2445956282E-003  -5.1896351576E-001 -3.1954690814E-001 
7100000000.000 -8.9713525772E-001 +1.8385426700E-001  +1.5873515606E+000 +8.0024653673E-001  +1.3195043430E-002 +6.5999757499E-003  -5.2756255865E-001 -3.1585153937E-001 
7200000000.000 -8.9615470171E-001 +1.9183839858E-001  +1.5682140589E+000 +7.5980836153E-001  +1.3010649011E-002 +6.9414121099E-003  -5.3647363186E-001 -3.1119790673E-001 
7300000000.000 -8.9513540268E-001 +1.9981932640E-001  +1.5495185852E+000 +7.1997147799E-001  +1.2865581550E-002 +7.3040891439E-003  -5.4497522116E-001 -3.0683991313E-001 
7400000000.000 -8.9395552874E-001 +2.0764783025E-001  +1.5319482088E+000 +6.8303525448E-001  +1.2669828720E-002 +7.6458379626E-003  -5.5336457491E-001 -3.0258905888E-001 
7500000000.000 -8.9290201664E-001 +2.1539814770E-001  +1.5131709576E+000 +6.4724892378E-001  +1.2501484714E-002 +8.0398861319E-003  -5.6163823605E-001 -2.9722705483E-001 
7600000000.000 -8.9178156853E-001 +2.2302849591E-001  +1.4949101210E+000 +6.1172395945E-001  +1.2335487641E-002 +8.4270918742E-003  -5.7028603554E-001 -2.9256641865E-001 
7700000000.000 -8.9060086012E-001 +2.3068976402E-001  +1.4774782658E+000 +5.7928889990E-001  +1.2215694413E-002 +8.8364128023E-003  -5.7806682587E-001 -2.8793281317E-001 
7800000000.000 -8.8933509588E-001 +2.3811529577E-001  +1.4578224421E+000 +5.4602617025E-001  +1.2092730962E-002 +9.2489924282E-003  -5.8613276482E-001 -2.8251239657E-001 
7900000000.000 -8.8823133707E-001 +2.4559633434E-001  +1.4399447441E+000 +5.1438403130E-001  +1.1974004097E-002 +9.6530495211E-003  -5.9422081709E-001 -2.7742323279E-001 
8000000000.000 -8.8717871904E-001 +2.5330388546E-001  +1.4210288525E+000 +4.8425340652E-001  +1.1853878386E-002 +1.0076266713E-002  -6.0163295269E-001 -2.7176529169E-001 
8100000000.000 -8.8542640209E-001 +2.6096743345E-001  +1.4039144516E+000 +4.5410308242E-001  +1.1803577654E-002 +1.0472113267E-002  -6.0969805717E-001 -2.6637375355E-001 
8200000000.000 -8.8404554129E-001 +2.6836091280E-001  +1.3854049444E+000 +4.2663377523E-001  +1.1702529155E-002 +1.0948223993E-002  -6.1673319340E-001 -2.6039281487E-001 
8300000000.000 -8.8239514828E-001 +2.7586197853E-001  +1.3664863110E+000 +3.9758932590E-001  +1.1662579142E-002 +1.1361398734E-002  -6.2470221519E-001 -2.5485011935E-001 
8400000000.000 -8.8061922789E-001 +2.8327634931E-001  +1.3489261866E+000 +3.7123721838E-001  +1.1637188494E-002 +1.1798367836E-002  -6.3174426556E-001 -2.4965402484E-001 
8500000000.000 -8.7894463539E-001 +2.9052552581E-001  +1.3299496174E+000 +3.4554970264E-001  +1.1583183892E-002 +1.2275143526E-002  -6.3884454966E-001 -2.4377869070E-001 
8600000000.000 -8.7715816498E-001 +2.9790583253E-001  +1.3120986223E+000 +3.2070329785E-001  +1.1624866165E-002 +1.2705078349E-002  -6.4580464363E-001 -2.3806880414E-001 
8700000000.000 -8.7548208237E-001 +3.0520349741E-001  +1.2939386368E+000 +2.9724925756E-001  +1.1603451334E-002 +1.3136679307E-002  -6.5261185169E-001 -2.3183496296E-001 
8800000000.000 -8.7371909618E-001 +3.1263366342E-001  +1.2762904167E+000 +2.7446496487E-001  +1.1641662568E-002 +1.3575242832E-002  -6.5920895338E-001 -2.2573557496E-001 
8900000000.000 -8.7173593044E-001 +3.2017886639E-001  +1.2589423656E+000 +2.5208970904E-001  +1.1709174141E-002 +1.4019946568E-002  -6.6574931145E-001 -2.1963630617E-001 
9000000000.000 -8.6958855391E-001 +3.2753160596E-001  +1.2409591675E+000 +2.3074826598E-001  +1.1801876128E-002 +1.4412891120E-002  -6.7172652483E-001 -2.1351251006E-001 
9100000000.000 -8.6745578051E-001 +3.3479446173E-001  +1.2235714197E+000 +2.1005707979E-001  +1.1832426302E-002 +1.4832270332E-002  -6.7788213491E-001 -2.0694191754E-001 
9200000000.000 -8.6523926258E-001 +3.4209451079E-001  +1.2071202993E+000 +1.8908584118E-001  +1.1902464554E-002 +1.5217921697E-002  -6.8401515484E-001 -2.0069892704E-001 
9300000000.000 -8.6311757565E-001 +3.4936362505E-001  +1.1898012161E+000 +1.7040640116E-001  +1.2000893243E-002 +1.5663122758E-002  -6.8948769569E-001 -1.9370947778E-001 
9400000000.000 -8.6072295904E-001 +3.5653066635E-001  +1.1729258299E+000 +1.5093065798E-001  +1.2080167420E-002 +1.6024870798E-002  -6.9556599855E-001 -1.8724215031E-001 
9500000000.000 -8.5812121630E-001 +3.6360591650E-001  +1.1561417580E+000 +1.3330662251E-001  +1.2168495916E-002 +1.6433151439E-002  -7.0084714890E-001 -1.8091911077E-001 
9600000000.000 -8.5577845573E-001 +3.7038213015E-001  +1.1394824982E+000 +1.1457453668E-001  +1.2136555277E-002 +1.6863027588E-002  -7.0703333616E-001 -1.7484492064E-001 
9700000000.000 -8.5322034359E-001 +3.7762409449E-001  +1.1221746206E+000 +9.9346861243E-002  +1.2315465137E-002 +1.7466366291E-002  -7.1175986528E-001 -1.6778162122E-001 
9800000000.000 -8.5084831715E-001 +3.8474678993E-001  +1.1065850258E+000 +8.2904599607E-002  +1.2698583305E-002 +1.7892377451E-002  -7.1729463339E-001 -1.6093569994E-001 
9900000000.000 -8.4813207388E-001 +3.9209130406E-001  +1.0906540155E+000 +6.6253595054E-002  +1.2931318954E-002 +1.8086012453E-002  -7.2259682417E-001 -1.5386080742E-001 
10000000000.000 -8.4542125463E-001 +3.9931589365E-001  +1.0741223097E+000 +5.1058646291E-002  +1.3009567745E-002 +1.8434150144E-002  -7.2751927376E-001 -1.4672653377E-001 
10100000000.000 -8.4246134758E-001 +4.0640994906E-001  +1.0583376884E+000 +3.5907469690E-002  +1.3192666695E-002 +1.8768390641E-002  -7.3230552673E-001 -1.3992691040E-001 
10200000000.000 -8.3948779106E-001 +4.1341480613E-001  +1.0421905518E+000 +2.2122647613E-002  +1.3303034008E-002 +1.9121471792E-002  -7.3651283979E-001 -1.3294056058E-001 
10300000000.000 -8.3644574881E-001 +4.2038416862E-001  +1.0268530846E+000 +8.3718840033E-003  +1.3504658826E-002 +1.9470995292E-002  -7.4084818363E-001 -1.2599618733E-001 
10400000000.000 -8.3345401287E-001 +4.2738229036E-001  +1.0109531879E+000 -4.7447397374E-003  +1.3692564331E-002 +1.9822968170E-002  -7.4510312080E-001 -1.1843562871E-001 
10500000000.000 -8.3042681217E-001 +4.3425098062E-001  +9.9623143673E-001 -1.7366364598E-002  +1.3849612325E-002 +2.0101999864E-002  -7.4938470125E-001 -1.1151724309E-001 
10600000000.000 -8.2748121023E-001 +4.4115751982E-001  +9.8054492474E-001 -2.9261801392E-002  +1.4000148512E-002 +2.0512463525E-002  -7.5344485044E-001 -1.0399898142E-001 
10700000000.000 -8.2440972328E-001 +4.4805178046E-001  +9.6574050188E-001 -4.1436884552E-002  +1.4189024456E-002 +2.0889416337E-002  -7.5772839785E-001 -9.6926361322E-002 
10800000000.000 -8.2127577066E-001 +4.5499369502E-001  +9.5086598396E-001 -5.2250154316E-002  +1.4434784651E-002 +2.1248949692E-002  -7.6141947508E-001 -8.9663274586E-002 
10900000000.000 -8.1777614355E-001 +4.6236428618E-001  +9.3645590544E-001 -6.3891604543E-002  +1.4682587236E-002 +2.1574914455E-002  -7.6520544291E-001 -8.2120865583E-002 
11000000000.000 -8.1402671337E-001 +4.6899127960E-001  +9.2179346085E-001 -7.3755607009E-002  +1.4962216839E-002 +2.1907163784E-002  -7.6818460226E-001 -7.4949279428E-002 
11100000000.000 -8.1061357260E-001 +4.7568213940E-001  +9.0676015615E-001 -8.4322810173E-002  +1.5160636976E-002 +2.2176178172E-002  -7.7201431990E-001 -6.7854069173E-002 
11200000000.000 -8.0715852976E-001 +4.8227956891E-001  +8.9341413975E-001 -9.3401357532E-002  +1.5387242660E-002 +2.2496392950E-002  -7.7525353432E-001 -6.1506155878E-002 
11300000000.000 -8.0379241705E-001 +4.8910969496E-001  +8.7945139408E-001 -1.0190442204E-001  +1.5630682930E-002 +2.2861715406E-002  -7.7828598022E-001 -5.4604757577E-002 
11400000000.000 -7.9940897226E-001 +4.9634131789E-001  +8.6781460047E-001 -1.1222139001E-001  +1.5946129337E-002 +2.3145837709E-002  -7.8103870153E-001 -4.8527542502E-002 
