!Data measured by Modelithics Inc.  support@modelithics.com  813-866-6335   Tampa FL USA
!  2-Port S-parameters saved by WinCal
! VAR MeasName=S-Parameters (CALIBRATED_DATA) read from VNA (N5247A)
! VAR MeasDate=6/27/2013 3:21:21 PM
! VAR NAME=Measurement 17
! VAR FILENAME=2p5mm_task1_12p1Vds_m2p68Vgs_127mA_25C_S8.s2p
! VAR DATE=6/27/2013 3:21:21 PM
! VAR PHYS_PORTS=1,2
!
# Hz S RI R 50
200000000.000 +6.3400828838E-001 -7.1657365561E-001  -2.2756734848E+001 +1.1797280312E+001  +5.7953391224E-003 +1.1933297850E-002  -1.0018327087E-001 -1.7764674127E-001 
300000000.000 +3.4744659066E-001 -8.7262499332E-001  -1.8291950226E+001 +1.4223450661E+001  +1.0428362526E-002 +1.4564130455E-002  -1.7257197201E-001 -2.2195832431E-001 
400000000.000 +8.9250206947E-002 -9.2149263620E-001  -1.4192124367E+001 +1.5025748253E+001  +1.4613048173E-002 +1.5439674258E-002  -2.4057123065E-001 -2.3595425487E-001 
500000000.000 -1.1751987040E-001 -9.0471231937E-001  -1.0908566475E+001 +1.4783862114E+001  +1.7896180972E-002 +1.5339303762E-002  -2.9121932387E-001 -2.3371385038E-001 
600000000.000 -2.7742126584E-001 -8.6259555817E-001  -8.3742103577E+000 +1.4136875153E+001  +2.0559905097E-002 +1.4762448147E-002  -3.3253782988E-001 -2.2564996779E-001 
700000000.000 -4.0257602930E-001 -8.0572909117E-001  -6.4243702888E+000 +1.3286615372E+001  +2.2528145462E-002 +1.3927156106E-002  -3.6495983601E-001 -2.1172575653E-001 
800000000.000 -4.9626481533E-001 -7.4736559391E-001  -4.9639101028E+000 +1.2414026260E+001  +2.4049440399E-002 +1.3088562526E-002  -3.8837373257E-001 -1.9951312244E-001 
900000000.000 -5.6848907471E-001 -6.8960559368E-001  -3.8051092625E+000 +1.1574117661E+001  +2.5135032833E-002 +1.2285983190E-002  -4.0729373693E-001 -1.8721631169E-001 
1000000000.000 -6.2488329411E-001 -6.3557529449E-001  -2.9209978580E+000 +1.0758779526E+001  +2.6040263474E-002 +1.1611577123E-002  -4.2217576504E-001 -1.7511186004E-001 
1100000000.000 -6.7005276680E-001 -5.8579331636E-001  -2.2263827324E+000 +1.0026662827E+001  +2.6758253574E-002 +1.0923340917E-002  -4.3438151479E-001 -1.6371956468E-001 
1200000000.000 -7.0618069172E-001 -5.4044008255E-001  -1.6719946861E+000 +9.3751525879E+000  +2.7381980792E-002 +1.0314007290E-002  -4.4392877817E-001 -1.5393975377E-001 
1300000000.000 -7.3473012447E-001 -4.9783015251E-001  -1.2106593847E+000 +8.7624092102E+000  +2.7791433036E-002 +9.6880923957E-003  -4.5299202204E-001 -1.4485314488E-001 
1400000000.000 -7.5886052847E-001 -4.5947480202E-001  -8.3774954081E-001 +8.2301998138E+000  +2.8178203851E-002 +9.1696223244E-003  -4.6011745930E-001 -1.3722553849E-001 
1500000000.000 -7.7791589499E-001 -4.2437943816E-001  -5.3632205725E-001 +7.7411608696E+000  +2.8422029689E-002 +8.7218331173E-003  -4.6604213119E-001 -1.2965089083E-001 
1600000000.000 -7.9377728701E-001 -3.9207863808E-001  -2.8083682060E-001 +7.2981119156E+000  +2.8632434085E-002 +8.3175264299E-003  -4.7136890888E-001 -1.2295524031E-001 
1700000000.000 -8.0688709021E-001 -3.6309286952E-001  -7.5162358582E-002 +6.8910865784E+000  +2.8788598254E-002 +7.9501699656E-003  -4.7588723898E-001 -1.1651767790E-001 
1800000000.000 -8.1843787432E-001 -3.3543777466E-001  +1.1293602735E-001 +6.5253520012E+000  +2.8942098841E-002 +7.5735906139E-003  -4.8050662875E-001 -1.1161185801E-001 
1900000000.000 -8.2833594084E-001 -3.1057205796E-001  +2.6288214326E-001 +6.1854219437E+000  +2.9004784301E-002 +7.3149851523E-003  -4.8471459746E-001 -1.0612999648E-001 
2000000000.000 -8.3731758595E-001 -2.8704577684E-001  +3.9193692803E-001 +5.8783049583E+000  +2.9069019482E-002 +7.0886854082E-003  -4.8833814263E-001 -1.0132999718E-001 
2100000000.000 -8.4503078461E-001 -2.6445308328E-001  +5.0905328989E-001 +5.5972795486E+000  +2.9185879976E-002 +6.8281763233E-003  -4.9160447717E-001 -9.7338281572E-002 
2200000000.000 -8.5114604235E-001 -2.4353665113E-001  +6.0939526558E-001 +5.3360986710E+000  +2.9226716608E-002 +6.5859244205E-003  -4.9495285749E-001 -9.3455500901E-002 
2300000000.000 -8.5722833872E-001 -2.2339487076E-001  +6.9678199291E-001 +5.0934128761E+000  +2.9240725562E-002 +6.3583808951E-003  -4.9825826287E-001 -8.9565724134E-002 
2400000000.000 -8.6134064198E-001 -2.0432274044E-001  +7.7262228727E-001 +4.8639841080E+000  +2.9175138101E-002 +6.1474787071E-003  -5.0137162209E-001 -8.5672758520E-002 
2500000000.000 -8.6504358053E-001 -1.8696129322E-001  +8.3661651611E-001 +4.6536908150E+000  +2.9097523540E-002 +6.0292547569E-003  -5.0407123566E-001 -8.2127362490E-002 
2600000000.000 -8.6874753237E-001 -1.7061711848E-001  +8.9458668232E-001 +4.4584684372E+000  +2.9055211693E-002 +5.9517733753E-003  -5.0661832094E-001 -7.9209886491E-002 
2700000000.000 -8.7206119299E-001 -1.5445174277E-001  +9.4872730970E-001 +4.2733907700E+000  +2.9043814167E-002 +5.9348954819E-003  -5.0937986374E-001 -7.6542772353E-002 
2800000000.000 -8.7478685379E-001 -1.3919416070E-001  +9.9250364304E-001 +4.0991215706E+000  +2.9077664018E-002 +5.8346423320E-003  -5.1221466064E-001 -7.3523782194E-002 
2900000000.000 -8.7695991993E-001 -1.2427428365E-001  +1.0331163406E+000 +3.9393923283E+000  +2.9056044295E-002 +5.7415952906E-003  -5.1456016302E-001 -7.0937581360E-002 
3000000000.000 -8.7887591124E-001 -1.1038745195E-001  +1.0689777136E+000 +3.7849049568E+000  +2.9032116756E-002 +5.6629842147E-003  -5.1753109694E-001 -6.8272873759E-002 
3100000000.000 -8.8079988956E-001 -9.6839569509E-002  +1.1005699635E+000 +3.6397356987E+000  +2.8977259994E-002 +5.5678733625E-003  -5.2036839724E-001 -6.5673314035E-002 
3200000000.000 -8.8194507360E-001 -8.4004364908E-002  +1.1301127672E+000 +3.5021724701E+000  +2.8887866065E-002 +5.5327811278E-003  -5.2314597368E-001 -6.3459664583E-002 
3300000000.000 -8.8308405876E-001 -7.1758262813E-002  +1.1555367708E+000 +3.3707633018E+000  +2.8792412952E-002 +5.5035282858E-003  -5.2599984407E-001 -6.1242692173E-002 
3400000000.000 -8.8419717550E-001 -6.0303106904E-002  +1.1749430895E+000 +3.2471842766E+000  +2.8788637370E-002 +5.5622281507E-003  -5.2862936258E-001 -5.8845981956E-002 
3500000000.000 -8.8576030731E-001 -4.9025602639E-002  +1.1936695576E+000 +3.1308591366E+000  +2.8811905533E-002 +5.5087413639E-003  -5.3162044287E-001 -5.6635938585E-002 
3600000000.000 -8.8709467649E-001 -3.7558469921E-002  +1.2116518021E+000 +3.0180416107E+000  +2.8773382306E-002 +5.4062865674E-003  -5.3471976519E-001 -5.4255660623E-002 
3700000000.000 -8.8814264536E-001 -2.6248482987E-002  +1.2240428925E+000 +2.9121069908E+000  +2.8704499826E-002 +5.3411624394E-003  -5.3743726015E-001 -5.1748715341E-002 
3800000000.000 -8.8878494501E-001 -1.4945452102E-002  +1.2362135649E+000 +2.8127760887E+000  +2.8610952199E-002 +5.2709518932E-003  -5.3986722231E-001 -4.9428917468E-002 
3900000000.000 -8.8891851902E-001 -4.4775516726E-003  +1.2479138374E+000 +2.7168517113E+000  +2.8482316062E-002 +5.2604647353E-003  -5.4248863459E-001 -4.7554783523E-002 
4000000000.000 -8.8918220997E-001 +5.5893091485E-003  +1.2588016987E+000 +2.6242573261E+000  +2.8355969116E-002 +5.2235978656E-003  -5.4548907280E-001 -4.5447628945E-002 
4100000000.000 -8.8924098015E-001 +1.5392854810E-002  +1.2670766115E+000 +2.5358092785E+000  +2.8206516057E-002 +5.2733528428E-003  -5.4831677675E-001 -4.3245714158E-002 
4200000000.000 -8.8953918219E-001 +2.4841155857E-002  +1.2745976448E+000 +2.4516055584E+000  +2.8103074059E-002 +5.3388588130E-003  -5.5120635033E-001 -4.1031908244E-002 
4300000000.000 -8.8975971937E-001 +3.4408424050E-002  +1.2809854746E+000 +2.3700377941E+000  +2.8006443754E-002 +5.3788502701E-003  -5.5403059721E-001 -3.8877319545E-002 
4400000000.000 -8.8981735706E-001 +4.3812714517E-002  +1.2857391834E+000 +2.2911150455E+000  +2.7938295156E-002 +5.4474319331E-003  -5.5699640512E-001 -3.6661721766E-002 
4500000000.000 -8.8964557648E-001 +5.3110484034E-002  +1.2904855013E+000 +2.2160849571E+000  +2.7857609093E-002 +5.4552787915E-003  -5.5991905928E-001 -3.4447658807E-002 
4600000000.000 -8.8931846619E-001 +6.2038216740E-002  +1.2920850515E+000 +2.1433453560E+000  +2.7752090245E-002 +5.4987771437E-003  -5.6271809340E-001 -3.2148577273E-002 
4700000000.000 -8.8889324665E-001 +7.0653162897E-002  +1.2948080301E+000 +2.0731143951E+000  +2.7654536068E-002 +5.5199349299E-003  -5.6577086449E-001 -3.0039440840E-002 
4800000000.000 -8.8858920336E-001 +7.9110741615E-002  +1.2952177525E+000 +2.0056829453E+000  +2.7522074059E-002 +5.5619245395E-003  -5.6876742840E-001 -2.7765098959E-002 
4900000000.000 -8.8828635216E-001 +8.7499469519E-002  +1.2954751253E+000 +1.9421284199E+000  +2.7404442430E-002 +5.6320303120E-003  -5.7156741619E-001 -2.5454126298E-002 
5000000000.000 -8.8796460629E-001 +9.5662303269E-002  +1.2952797413E+000 +1.8790180683E+000  +2.7284320444E-002 +5.7167191990E-003  -5.7474845648E-001 -2.3182906210E-002 
5100000000.000 -8.8758581877E-001 +1.0387890041E-001  +1.2943395376E+000 +1.8199187517E+000  +2.7178235352E-002 +5.8071911335E-003  -5.7739418745E-001 -2.0676899701E-002 
5200000000.000 -8.8711148500E-001 +1.1182507128E-001  +1.2921916246E+000 +1.7606997490E+000  +2.7094410732E-002 +5.8996751904E-003  -5.8048605919E-001 -1.8136994913E-002 
5300000000.000 -8.8670057058E-001 +1.1999437958E-001  +1.2901754379E+000 +1.7058448792E+000  +2.6996938512E-002 +5.9852455743E-003  -5.8314156532E-001 -1.5584620647E-002 
5400000000.000 -8.8593822718E-001 +1.2797740102E-001  +1.2883149385E+000 +1.6510615349E+000  +2.6900053024E-002 +6.0635688715E-003  -5.8616751432E-001 -1.3216674328E-002 
5500000000.000 -8.8511162996E-001 +1.3576109707E-001  +1.2856595516E+000 +1.5981192589E+000  +2.6789054275E-002 +6.1068013310E-003  -5.8910512924E-001 -1.0825017467E-002 
5600000000.000 -8.8433241844E-001 +1.4347492158E-001  +1.2818406820E+000 +1.5479714870E+000  +2.6655992493E-002 +6.2371795066E-003  -5.9198343754E-001 -8.0616213381E-003 
5700000000.000 -8.8336354494E-001 +1.5094389021E-001  +1.2785372734E+000 +1.4977279902E+000  +2.6515621692E-002 +6.3480958343E-003  -5.9513449669E-001 -5.4798633792E-003 
5800000000.000 -8.8269054890E-001 +1.5827758610E-001  +1.2738778591E+000 +1.4498081207E+000  +2.6404196396E-002 +6.4864247106E-003  -5.9828567505E-001 -2.6676808484E-003 
5900000000.000 -8.8176256418E-001 +1.6572552919E-001  +1.2689616680E+000 +1.4039254189E+000  +2.6290815324E-002 +6.6042859107E-003  -6.0112428665E-001 +1.2486838386E-004 
6000000000.000 -8.8083088398E-001 +1.7294600606E-001  +1.2638163567E+000 +1.3590620756E+000  +2.6194751263E-002 +6.7902198061E-003  -6.0394161940E-001 +2.7911001816E-003 
6100000000.000 -8.7985634804E-001 +1.8013070524E-001  +1.2580677271E+000 +1.3149493933E+000  +2.6145299897E-002 +6.9489409216E-003  -6.0668206215E-001 +5.5243866518E-003 
6200000000.000 -8.7904310226E-001 +1.8737363815E-001  +1.2515089512E+000 +1.2732290030E+000  +2.6116244495E-002 +7.0508872159E-003  -6.0928362608E-001 +8.4282327443E-003 
6300000000.000 -8.7795007229E-001 +1.9466796517E-001  +1.2452346087E+000 +1.2325289249E+000  +2.6022410020E-002 +7.1273660287E-003  -6.1191225052E-001 +1.1402966455E-002 
6400000000.000 -8.7695735693E-001 +2.0192876458E-001  +1.2388935089E+000 +1.1944444180E+000  +2.5926154107E-002 +7.2463871911E-003  -6.1445331573E-001 +1.4360555448E-002 
6500000000.000 -8.7581115961E-001 +2.0888733864E-001  +1.2323055267E+000 +1.1553502083E+000  +2.5795832276E-002 +7.3839826509E-003  -6.1751103401E-001 +1.7169820145E-002 
6600000000.000 -8.7439578772E-001 +2.1577650309E-001  +1.2269992828E+000 +1.1182838678E+000  +2.5704916567E-002 +7.5111454353E-003  -6.2025910616E-001 +1.9725086167E-002 
6700000000.000 -8.7325596809E-001 +2.2253306210E-001  +1.2190413475E+000 +1.0827956200E+000  +2.5599746034E-002 +7.6933270320E-003  -6.2286138535E-001 +2.3042967543E-002 
6800000000.000 -8.7199759483E-001 +2.2936877608E-001  +1.2132194042E+000 +1.0472207069E+000  +2.5517592207E-002 +7.8306552023E-003  -6.2556731701E-001 +2.5807918981E-002 
6900000000.000 -8.7078899145E-001 +2.3608745635E-001  +1.2055325508E+000 +1.0133351088E+000  +2.5407075882E-002 +8.0307610333E-003  -6.2812572718E-001 +2.9362946749E-002 
7000000000.000 -8.6940228939E-001 +2.4293802679E-001  +1.1983691454E+000 +9.7991043329E-001  +2.5323614478E-002 +8.2199536264E-003  -6.3083463907E-001 +3.2609980553E-002 
7100000000.000 -8.6788278818E-001 +2.4969884753E-001  +1.1918500662E+000 +9.4759923220E-001  +2.5288593024E-002 +8.3816470578E-003  -6.3359785080E-001 +3.5355538130E-002 
7200000000.000 -8.6645835638E-001 +2.5642636418E-001  +1.1834014654E+000 +9.1613233089E-001  +2.5214068592E-002 +8.5826842114E-003  -6.3616901636E-001 +3.8701113313E-002 
7300000000.000 -8.6494493484E-001 +2.6317980886E-001  +1.1759098768E+000 +8.8539242744E-001  +2.5142099708E-002 +8.7677370757E-003  -6.3864541054E-001 +4.1674938053E-002 
7400000000.000 -8.6326879263E-001 +2.6987144351E-001  +1.1683781147E+000 +8.5565984249E-001  +2.5107340887E-002 +8.9341737330E-003  -6.4121675491E-001 +4.5058950782E-002 
7500000000.000 -8.6175298691E-001 +2.7649122477E-001  +1.1606781483E+000 +8.2699912786E-001  +2.5042131543E-002 +9.1353608295E-003  -6.4365154505E-001 +4.8656381667E-002 
7600000000.000 -8.6016440392E-001 +2.8294616938E-001  +1.1528800726E+000 +7.9894065857E-001  +2.5011418387E-002 +9.3398112804E-003  -6.4609491825E-001 +5.2090913057E-002 
7700000000.000 -8.5848325491E-001 +2.8944763541E-001  +1.1452405453E+000 +7.7142226696E-001  +2.4989601225E-002 +9.5344735309E-003  -6.4865046740E-001 +5.5322207510E-002 
7800000000.000 -8.5681682825E-001 +2.9566934705E-001  +1.1360982656E+000 +7.4382811785E-001  +2.4920692667E-002 +9.7247306257E-003  -6.5126121044E-001 +5.8840233833E-002 
7900000000.000 -8.5532188416E-001 +3.0204209685E-001  +1.1286644936E+000 +7.1814179420E-001  +2.4909855798E-002 +9.9114812911E-003  -6.5336662531E-001 +6.2015999109E-002 
8000000000.000 -8.5377240181E-001 +3.0858898163E-001  +1.1195952892E+000 +6.9245010614E-001  +2.4856267497E-002 +1.0113594122E-002  -6.5582644939E-001 +6.5745443106E-002 
8100000000.000 -8.5170030594E-001 +3.1512352824E-001  +1.1114805937E+000 +6.6808104515E-001  +2.4841373786E-002 +1.0313704610E-002  -6.5819269419E-001 +6.9623060524E-002 
8200000000.000 -8.4995758533E-001 +3.2144078612E-001  +1.1033830643E+000 +6.4421087503E-001  +2.4823641405E-002 +1.0584982112E-002  -6.6065740585E-001 +7.3248490691E-002 
8300000000.000 -8.4799295664E-001 +3.2782649994E-001  +1.0944005251E+000 +6.2002068758E-001  +2.4810621515E-002 +1.0766537860E-002  -6.6331118345E-001 +7.6891839504E-002 
8400000000.000 -8.4584575891E-001 +3.3414238691E-001  +1.0862146616E+000 +5.9744143486E-001  +2.4810150266E-002 +1.0988689028E-002  -6.6547989845E-001 +8.0247208476E-002 
8500000000.000 -8.4389269352E-001 +3.4031811357E-001  +1.0778733492E+000 +5.7433205843E-001  +2.4819802493E-002 +1.1229267344E-002  -6.6803359985E-001 +8.3659671247E-002 
8600000000.000 -8.4185856581E-001 +3.4663096070E-001  +1.0689709187E+000 +5.5279558897E-001  +2.4877846241E-002 +1.1450470425E-002  -6.6993778944E-001 +8.7523579597E-002 
8700000000.000 -8.3988088369E-001 +3.5288432240E-001  +1.0602064133E+000 +5.3191649914E-001  +2.4886559695E-002 +1.1655818671E-002  -6.7200940847E-001 +9.1308861971E-002 
8800000000.000 -8.3789449930E-001 +3.5924410820E-001  +1.0510019064E+000 +5.1091361046E-001  +2.4922912940E-002 +1.1908330955E-002  -6.7437905073E-001 +9.5200829208E-002 
8900000000.000 -8.3566290140E-001 +3.6578005552E-001  +1.0423879623E+000 +4.9108371139E-001  +2.4984929711E-002 +1.2136643752E-002  -6.7624980211E-001 +9.8973050714E-002 
9000000000.000 -8.3332383633E-001 +3.7202447653E-001  +1.0334067345E+000 +4.7173672915E-001  +2.5089241564E-002 +1.2328276411E-002  -6.7808669806E-001 +1.0256666690E-001 
9100000000.000 -8.3098280430E-001 +3.7829250097E-001  +1.0246324539E+000 +4.5263093710E-001  +2.5107666850E-002 +1.2509637512E-002  -6.7995905876E-001 +1.0665231198E-001 
9200000000.000 -8.2857435942E-001 +3.8461399078E-001  +1.0167598724E+000 +4.3351677060E-001  +2.5174034759E-002 +1.2713176198E-002  -6.8174457550E-001 +1.1064915359E-001 
9300000000.000 -8.2629007101E-001 +3.9085283875E-001  +1.0078129768E+000 +4.1546401381E-001  +2.5234699249E-002 +1.2936686166E-002  -6.8336182833E-001 +1.1506417394E-001 
9400000000.000 -8.2374775410E-001 +3.9709070325E-001  +9.9944871664E-001 +3.9733394980E-001  +2.5301130489E-002 +1.3116377406E-002  -6.8514978886E-001 +1.1916250736E-001 
9500000000.000 -8.2107871771E-001 +4.0319731832E-001  +9.9054974318E-001 +3.7989932299E-001  +2.5376411155E-002 +1.3312176801E-002  -6.8688464165E-001 +1.2308012694E-001 
9600000000.000 -8.1864303350E-001 +4.0896460414E-001  +9.8171389103E-001 +3.6188450456E-001  +2.5328289717E-002 +1.3561418280E-002  -6.8892759085E-001 +1.2671828270E-001 
9700000000.000 -8.1595331430E-001 +4.1532939672E-001  +9.7189480066E-001 +3.4694913030E-001  +2.5471189991E-002 +1.3974754140E-002  -6.9022399187E-001 +1.3113328815E-001 
9800000000.000 -8.1346333027E-001 +4.2152172327E-001  +9.6389144659E-001 +3.3071735501E-001  +2.5820517913E-002 +1.4183977619E-002  -6.9196116924E-001 +1.3537831604E-001 
9900000000.000 -8.1065756083E-001 +4.2797389627E-001  +9.5531606674E-001 +3.1468269229E-001  +2.5985322893E-002 +1.4182835817E-002  -6.9338637590E-001 +1.3989417255E-001 
10000000000.000 -8.0784153938E-001 +4.3427324295E-001  +9.4632345438E-001 +2.9945489764E-001  +2.6029992849E-002 +1.4331354760E-002  -6.9485652447E-001 +1.4421065152E-001 
10100000000.000 -8.0479609966E-001 +4.4045314193E-001  +9.3770599365E-001 +2.8405201435E-001  +2.6152648032E-002 +1.4506149106E-002  -6.9633650780E-001 +1.4832270145E-001 
10200000000.000 -8.0177676678E-001 +4.4660332799E-001  +9.2902314663E-001 +2.6937794685E-001  +2.6224348694E-002 +1.4668148942E-002  -6.9755601883E-001 +1.5240044892E-001 
10300000000.000 -7.9872018099E-001 +4.5271059871E-001  +9.2043030262E-001 +2.5529655814E-001  +2.6366433129E-002 +1.4828819782E-002  -6.9851768017E-001 +1.5688908100E-001 
10400000000.000 -7.9566293955E-001 +4.5884010196E-001  +9.1187840700E-001 +2.4134369195E-001  +2.6490362361E-002 +1.4984244481E-002  -6.9953370094E-001 +1.6157506406E-001 
10500000000.000 -7.9272776842E-001 +4.6481651068E-001  +9.0295809507E-001 +2.2753901780E-001  +2.6597229764E-002 +1.5134174377E-002  -7.0098567009E-001 +1.6622687876E-001 
10600000000.000 -7.8973978758E-001 +4.7090008855E-001  +8.9427262545E-001 +2.1447348595E-001  +2.6674212888E-002 +1.5314035118E-002  -7.0199340582E-001 +1.7071214318E-001 
10700000000.000 -7.8669232130E-001 +4.7690635920E-001  +8.8601160049E-001 +2.0117548108E-001  +2.6788586751E-002 +1.5497545712E-002  -7.0317721367E-001 +1.7507138848E-001 
10800000000.000 -7.8358530998E-001 +4.8312604427E-001  +8.7696611881E-001 +1.8869096041E-001  +2.6949392632E-002 +1.5696171671E-002  -7.0437568426E-001 +1.7968922853E-001 
10900000000.000 -7.8014415503E-001 +4.8963618279E-001  +8.6862814426E-001 +1.7619299889E-001  +2.7097493410E-002 +1.5844622627E-002  -7.0527565479E-001 +1.8437716365E-001 
11000000000.000 -7.7644437551E-001 +4.9548214674E-001  +8.5973608494E-001 +1.6411650181E-001  +2.7272244915E-002 +1.6032945365E-002  -7.0597070456E-001 +1.8872329593E-001 
11100000000.000 -7.7307629585E-001 +5.0145953894E-001  +8.5055392981E-001 +1.5230208635E-001  +2.7414618060E-002 +1.6159823164E-002  -7.0721870661E-001 +1.9317032397E-001 
11200000000.000 -7.6969891787E-001 +5.0731444359E-001  +8.4255385399E-001 +1.4180141687E-001  +2.7556190267E-002 +1.6336243600E-002  -7.0810824633E-001 +1.9703111053E-001 
11300000000.000 -7.6636099815E-001 +5.1339846849E-001  +8.3443069458E-001 +1.3099694252E-001  +2.7729997411E-002 +1.6532525420E-002  -7.0914596319E-001 +2.0112101734E-001 
11400000000.000 -7.6192802191E-001 +5.1987916231E-001  +8.2744497061E-001 +1.1904217303E-001  +2.7954978868E-002 +1.6636604443E-002  -7.0932114124E-001 +2.0544135571E-001 
