# HZ S RI R 50
1.00000000000000000000e+07 +4.25086120840687739508e-02 +2.03198037252364118290e-04 +9.57480834242484535324e-01 -4.25850155000291055122e-04 +9.57480834242484535324e-01 -4.25850155000291055122e-04 +4.25091143030281518045e-02 +2.11992625116876705002e-04
2.00000000000000000000e+07 +4.24933259410846531079e-02 +4.09500477240378759312e-04 +9.57465671621352321097e-01 -8.48736134709854816126e-04 +9.57465671621352321097e-01 -8.48736134709854816126e-04 +4.24952807841169136194e-02 +4.26819089247453768016e-04
3.00000000000000000000e+07 +4.24697459496805665435e-02 +6.21443329721091093990e-04 +9.57442211610529891885e-01 -1.26623642091909299409e-03 +9.57442211610529891885e-01 -1.26623642091909299409e-03 +4.24739565622349810048e-02 +6.46794360209107348225e-04
4.00000000000000000000e+07 +4.24402034327771432443e-02 +8.40631191341910518830e-04 +9.57412679974262381677e-01 -1.67681873554399469423e-03 +9.57412679974262381677e-01 -1.67681873554399469423e-03 +4.24472698412782095678e-02 +8.73383142968526702751e-04
5.00000000000000000000e+07 +4.24071705670433021784e-02 +1.06766690297586779035e-03 +9.57379436952757623125e-01 -2.07990719803898514717e-03 +9.57379436952757623125e-01 -2.07990719803898514717e-03 +4.24174774067591839333e-02 +1.10713566564955303261e-03
6.00000000000000000000e+07 +4.23728612820392508409e-02 +1.30232038093824149458e-03 +9.57344596232142297509e-01 -2.47572113834685888015e-03 +9.57344596232142297509e-01 -2.47572113834685888015e-03 +4.23866002969945851464e-02 +1.34784180116910828201e-03
7.00000000000000000000e+07 +4.23390124346115503950e-02 +1.54381058045627295172e-03 +9.57309816027209548039e-01 -2.86500590017995304323e-03 +9.57309816027209548039e-01 -2.86500590017995304323e-03 +4.23562240428908762246e-02 +1.59478846437014214373e-03
8.00000000000000000000e+07 +4.23068320664658700792e-02 +1.79108509080065344057e-03 +9.57276249682081026293e-01 -3.24876590556924266934e-03 +9.57276249682081026293e-01 -3.24876590556924266934e-03 +4.23274514336262619452e-02 +1.84701484715982288190e-03
9.00000000000000000000e+07 +4.22770557500272564644e-02 +2.04303357569457586657e-03 +9.57244599465000844951e-01 -3.62806087886315912355e-03 +9.57244599465000844951e-01 -3.62806087886315912355e-03 +4.23009539533239845022e-02 +2.10350726271855883315e-03
1.00000000000000000000e+08 +4.22500500828675157328e-02 +2.29862035454641384577e-03 +9.57215215376771233480e-01 -4.00387926875769763896e-03 +9.57215215376771233480e-01 -4.00387926875769763896e-03 +4.22770662584289816377e-02 +2.36332017546576119565e-03
1.10000000000000000000e+08 +4.22259213067729261004e-02 +2.55694933099611179661e-03 +9.57188198851708249570e-01 -4.37707625978100544478e-03 +9.57188198851708249570e-01 -4.37707625978100544478e-03 +4.22558853332354461552e-02 +2.62563547264434583167e-03
1.20000000000000000000e+08 +4.22046078762339238466e-02 +2.81728306567443492758e-03 +9.57163491134715993525e-01 -4.74835556323892869768e-03 +9.57163491134715993525e-01 -4.74835556323892869768e-03 +4.22373549932579944732e-02 +2.88977987534755472940e-03
1.30000000000000000000e+08 +4.21859504648701214014e-02 +3.07903566992006206410e-03 +9.57140940117853666891e-01 -5.11827620180831284469e-03 +9.57140940117853666891e-01 -5.11827620180831284469e-03 +4.22213297922798408424e-02 +3.15521845137777933593e-03
1.40000000000000000000e+08 +4.21697406802346991261e-02 +3.34175351851632822242e-03 +9.57120346849333669681e-01 -5.48727092353681715486e-03 +9.57120346849333669681e-01 -5.48727092353681715486e-03 +4.22076194928331580036e-02 +3.42153700840469414401e-03
1.50000000000000000000e+08 +4.21557527359443517945e-02 +3.60509230193672676815e-03 +9.57101495771525478951e-01 -5.85566811056726331530e-03 +9.57101495771525478951e-01 -5.85566811056726331530e-03 +4.21960179788641864818e-02 +3.68842114555597601344e-03
1.60000000000000000000e+08 +4.21437627191355301814e-02 +3.86879492178488198356e-03 +9.57084173115963388057e-01 -6.22371288283115730450e-03 +9.57084173115963388057e-01 -6.22371288283115730450e-03 +4.21863208444939324915e-02 +3.95563607473841099410e-03
1.70000000000000000000e+08 +4.21335593974706060227e-02 +4.13267220514447648771e-03 +9.57068177220992244436e-01 -6.59158551046088066194e-03 +9.57068177220992244436e-01 -6.59158551046088066194e-03 +4.21783352594534768909e-02 +4.22300901526872531078e-03
1.80000000000000000000e+08 +4.21249495441465421353e-02 +4.39658699827476760758e-03 +9.57053323615647100198e-01 -6.95941659986537043692e-03 +9.57053323615647100198e-01 -6.95941659986537043692e-03 +4.21718848301461113337e-02 +4.49041467342132290946e-03
1.90000000000000000000e+08 +4.21177598751331719318e-02 +4.66044149817749706055e-03 +9.57039446869157650610e-01 -7.32729918854032723913e-03 +9.57039446869157650610e-01 -7.32729918854032723913e-03 +4.21668113681018391636e-02 +4.75776367774471010269e-03
2.00000000000000000000e+08 +4.21118370003981251637e-02 +4.92416739049447889365e-03 +9.57026400544373045953e-01 -7.69529816061567846497e-03 +9.57026400544373045953e-01 -7.69529816061567846497e-03 +4.21629748454520267287e-02 +5.02499357620444370154e-03
2.10000000000000000000e+08 +4.21070462918917420847e-02 +5.18771828870478145246e-03 +9.57014056116996969514e-01 -8.06345746530479773329e-03 +9.57014056116996969514e-01 -8.06345746530479773329e-03 +4.21602523615419375047e-02 +5.29206193412262715370e-03
2.20000000000000000000e+08 +4.21032702298911667982e-02 +5.45106399796310356343e-03 +9.57002301396805754585e-01 -8.43180559333154243384e-03 +9.57002301396805754585e-01 -8.43180559333154243384e-03 +4.21585366333514233173e-02 +5.55894109778509205866e-03
2.30000000000000000000e+08 +4.21004065643933653162e-02 +5.71418619481982824337e-03 +9.56991038772289082104e-01 -8.80035970158657594731e-03 +9.56991038772289082104e-01 -8.80035970158657594731e-03 +4.21577343170782270487e-02 +5.82561425057014688894e-03
2.40000000000000000000e+08 +4.20983664842434490705e-02 +5.97707519023784120127e-03 +9.56980183462673328343e-01 -9.16912870353856976346e-03 +9.56980183462673328343e-01 -9.16912870353856976346e-03 +4.21577643367827548104e-02 +6.09207245799081760496e-03
2.50000000000000000000e+08 +4.20970728968206794884e-02 +6.23972751376075662755e-03 +9.56969661875509802762e-01 -9.53811557567595634521e-03 +9.56969661875509802762e-01 -9.53811557567595634521e-03 +4.21585563139581509517e-02 +6.35831246234493281666e-03
2.60000000000000000000e+08 +4.20964588664950525865e-02 +6.50214411632028116417e-03 +9.56959410115829967047e-01 -9.90731907332166594760e-03 +9.56959410115829967047e-01 -9.90731907332166594760e-03 +4.21600491420377823659e-02 +6.62433504210478869834e-03
2.70000000000000000000e+08 +4.20964662279549040047e-02 +6.76432903726426927593e-03 +9.56949372662262653932e-01 -1.02767350032473368110e-02 +9.56949372662262653932e-01 -1.02767350032473368110e-02 +4.21621897205380832818e-02 +6.89014379508181597223e-03
2.80000000000000000000e+08 +4.20970443724345347314e-02 +7.02628841884572925836e-03 +9.56939501208222131901e-01 -1.06463571645598626542e-02 +9.56939501208222131901e-01 -1.06463571645598626542e-02 +4.21649318470372208578e-02 +7.15574423877936120764e-03
2.90000000000000000000e+08 +4.20981491954292713631e-02 +7.28802978036254163474e-03 +9.56929753657268289402e-01 -1.10161780416942901156e-02 +9.56929753657268289402e-01 -1.10161780416942901156e-02 +4.21682352565715332093e-02 +7.42114314777385722377e-03
3.00000000000000000000e+08 +4.20997421901789792287e-02 +7.54956148611715498198e-03 +9.56920093257639381434e-01 -1.13861893123632044317e-02 +9.56920093257639381434e-01 -1.13861893123632044317e-02 +4.21720647941000864600e-02 +7.68634806802921156932e-03
3.10000000000000000000e+08 +4.21017896699194399401e-02 +7.81089235793988589940e-03 +9.56910487859715663816e-01 -1.17563822174883581689e-02 +9.56910487859715663816e-01 -1.17563822174883581689e-02 +4.21763897045183897005e-02 +7.95136696317952536284e-03
3.20000000000000000000e+08 +4.21042621022550203613e-02 +8.07203139544381519099e-03 +9.56900909280537614876e-01 -1.21267478282790150401e-02 +9.56900909280537614876e-01 -1.21267478282790150401e-02 +4.21811830250240910045e-02 +8.21620795915727585024e-03
3.30000000000000000000e+08 +4.21071335402220803257e-02 +8.33298757647774057666e-03 +9.56891332760625545895e-01 -1.24972772367436413959e-02 +9.56891332760625545895e-01 -1.24972772367436413959e-02 +4.21864210657499627555e-02 +8.48087916203209973842e-03
3.40000000000000000000e+08 +4.21103811362010388430e-02 +8.59376971718983292958e-03 +9.56881736499904489435e-01 -1.28679616892901933084e-02 +9.56881736499904489435e-01 -1.28679616892901933084e-02 +4.21920829660266116790e-02 +8.74538853026678164593e-03
3.50000000000000000000e+08 +4.21139847265088393402e-02 +8.85438637629956323827e-03 +9.56872101261105445502e-01 -1.32387926781198598386e-02 +9.56872101261105445502e-01 -1.32387926781198598386e-02 +4.21981503151677497798e-02 +9.00974378732968123051e-03
3.60000000000000000000e+08 +4.21179264761400717898e-02 +9.11484579205142433911e-03 +9.56862410030592358545e-01 -1.36097620014190082149e-02 +9.56862410030592358545e-01 -1.36097620014190082149e-02 +4.22046068281636752029e-02 +9.27395236414164068905e-03
3.70000000000000000000e+08 +4.21221905746074001820e-02 +9.37515584322031261810e-03 +9.56852647727975402780e-01 -1.39808618005884833374e-02 +9.56852647727975402780e-01 -1.39808618005884833374e-02 +4.22114380680218628794e-02 +9.53802136347893861346e-03
3.80000000000000000000e+08 +4.21267629751733083121e-02 +9.63532402770611758058e-03 +9.56842800957151906616e-01 -1.43520845806802896383e-02 +9.56842800957151906616e-01 -1.43520845806802896383e-02 +4.22186312077184253133e-02 +9.80195754043307505843e-03
3.90000000000000000000e+08 +4.21316311709267268815e-02 +9.89535745388045798188e-03 +9.56832857792518587381e-01 -1.47234232186593747005e-02 +9.56832857792518587381e-01 -1.47234232186593747005e-02 +4.22261748257842101095e-02 +1.00657672945115260477e-02
4.00000000000000000000e+08 +4.21367840021619130542e-02 +1.01552628410659529640e-02 +9.56822807595076207932e-01 -1.50948709629466649301e-02 +9.56822807595076207932e-01 -1.50948709629466649301e-02 +4.22340587304661785328e-02 +1.03294566700754923694e-02
4.10000000000000000000e+08 +4.21422114903757596971e-02 +1.04150465264461304649e-02 +9.56812640853940465924e-01 -1.54664214268224620846e-02 +9.56812640853940465924e-01 -1.54664214268224620846e-02 +4.22422738081876109062e-02 +1.05930313626478971034e-02
4.20000000000000000000e+08 +4.21479046949270741429e-02 +1.06747144763896309461e-02 +9.56802349049493905397e-01 -1.58380685776155320788e-02 +9.56802349049493905397e-01 -1.58380685776155320788e-02 +4.22508118926963327500e-02 +1.08564967292511718039e-02
4.30000000000000000000e+08 +4.21538555890179147956e-02 +1.09342723006940235886e-02 +9.56791924534981075290e-01 -1.62098067231048054149e-02 +9.56791924534981075290e-01 -1.62098067231048054149e-02 +4.22596656518511443190e-02 +1.11198578014101868289e-02
4.40000000000000000000e+08 +4.21600569521729737210e-02 +1.11937252686407397173e-02 +9.56781360433859418002e-01 -1.65816304961919729066e-02 +9.56781360433859418002e-01 -1.65816304961919729066e-02 +4.22688284894691540527e-02 +1.13831192998085778401e-02
4.50000000000000000000e+08 +4.21665022768340710946e-02 +1.14530783260501957399e-02 +9.56770650550617829389e-01 -1.69535348386190901082e-02 +9.56770650550617829389e-01 -1.69535348386190901082e-02 +4.22782944600582355488e-02 +1.16462856498580971665e-02
4.60000000000000000000e+08 +4.21731856870487878397e-02 +1.17123361127444737539e-02 +9.56759789293154416789e-01 -1.73255149842972584751e-02 +9.56759789293154416789e-01 -1.73255149842972584751e-02 +4.22880581945901598551e-02 +1.19093609976400113121e-02
4.70000000000000000000e+08 +4.21801018675428199267e-02 +1.19715029799927520637e-02 +9.56748771605052672484e-01 -1.76975664426516320071e-02 +9.56748771605052672484e-01 -1.76975664426516320071e-02 +4.22981148357524233683e-02 +1.21723492258307454394e-02
4.80000000000000000000e+08 +4.21872460017232858709e-02 +1.22305830076392119121e-02 +9.56737592906397038561e-01 -1.80696849822696466170e-02 +9.56737592906397038561e-01 -1.80696849822696466170e-02 +4.23084599813531928025e-02 +1.24352539693376382135e-02
4.90000000000000000000e+08 +4.21946137173836860468e-02 +1.24895800207068113918e-02 +9.56726249041936815942e-01 -1.84418666150496651790e-02 +9.56726249041936815942e-01 -1.84418666150496651790e-02 +4.23190896347567652169e-02 +1.26980786304563483813e-02
5.00000000000000000000e+08 +4.22022010390538243607e-02 +1.27484976053396925622e-02 +9.56714736235588447677e-01 -1.88141075809809613095e-02 +9.56714736235588447677e-01 -1.88141075809809613095e-02 +4.23300001613850992999e-02 +1.29608263934243399251e-02
5.10000000000000000000e+08 +4.22100043461024893032e-02 +1.30073391239991856261e-02 +9.56703051050442065950e-01 -1.91864043336364524517e-02 +9.56703051050442065950e-01 -1.91864043336364524517e-02 +4.23411882504707084984e-02 +1.32235002382931621234e-02
5.20000000000000000000e+08 +4.22180203358292899241e-02 +1.32661077298669282526e-02 +9.56691190353518350342e-01 -1.95587535264222234233e-02 +9.56691190353518350342e-01 -1.95587535264222234233e-02 +4.23526508813644175788e-02 +1.34861029540768208312e-02
5.30000000000000000000e+08 +4.22262459908847448409e-02 +1.35248063804355427714e-02 +9.56679151284667961264e-01 -1.99311519996029744284e-02 +9.56679151284667961264e-01 -1.99311519996029744284e-02 +4.23643852937937992476e-02 +1.37486371511584652694e-02
5.40000000000000000000e+08 +4.22346785504650532039e-02 +1.37834378502885348400e-02 +9.56666931229069095188e-01 -2.03035967681012147201e-02 +9.56666931229069095188e-01 -2.03035967681012147201e-02 +4.23763889615677014078e-02 +1.40111052729571371883e-02
5.50000000000000000000e+08 +4.22433154847897465722e-02 +1.40420047430841205688e-02 +9.56654527792859310509e-01 -2.06760850100567335208e-02 +9.56654527792859310509e-01 -2.06760850100567335208e-02 +4.23886595692777382038e-02 +1.42735096068675494652e-02
5.60000000000000000000e+08 +4.22521544724541592286e-02 +1.43005095027689023424e-02 +9.56641938781517708890e-01 -2.10486140561213265487e-02 +9.56641938781517708890e-01 -2.10486140561213265487e-02 +4.24011949916237307345e-02 +1.45358522944969044410e-02
5.70000000000000000000e+08 +4.22611933802958458783e-02 +1.45589544240526912178e-02 +9.56629162180637981905e-01 -2.14211813794587362103e-02 +9.56629162180637981905e-01 -2.14211813794587362103e-02 +4.24139932750343742751e-02 +1.47981353412273940184e-02
5.80000000000000000000e+08 +4.22704302454638067288e-02 +1.48173416621801227328e-02 +9.56616196138813434935e-01 -2.17937845864161552911e-02 +9.56616196138813434935e-01 -2.17937845864161552911e-02 +4.24270526212987900139e-02 +1.50603606251365172708e-02
5.90000000000000000000e+08 +4.22798632594238513183e-02 +1.50756732420370947317e-02 +9.56603038952362982883e-01 -2.21664214078307469924e-02 +9.56603038952362982883e-01 -2.21664214078307469924e-02 +4.24403713729653575548e-02 +1.53225299053102500396e-02
6.00000000000000000000e+08 +4.22894907536698408390e-02 +1.53339510666312371645e-02 +9.56589689051691172139e-01 -2.25390896909336176102e-02 +9.56589689051691172139e-01 -2.25390896909336176102e-02 +4.24539480002980307294e-02 +1.55846448295848989674e-02
6.10000000000000000000e+08 +4.22993111869359242339e-02 +1.55921769249845569572e-02 +9.56576144989080945358e-01 -2.29117873918153504287e-02 +9.56576144989080945358e-01 -2.29117873918153504287e-02 +4.24677810896025437204e-02 +1.58467069417522546382e-02
6.20000000000000000000e+08 +4.23093231337337491449e-02 +1.58503524994763611566e-02 +9.56562405427747508568e-01 -2.32845125684159950930e-02 +9.56562405427747508568e-01 -2.32845125684159950930e-02 +4.24818693327625035439e-02 +1.61087176882628302366e-02
6.30000000000000000000e+08 +4.23195252740644553557e-02 +1.61084793726735987784e-02 +9.56548469132017853411e-01 -2.36572633740047312545e-02 +9.56548469132017853411e-01 -2.36572633740047312545e-02 +4.24962115178476873556e-02 +1.63706784244614031443e-02
6.40000000000000000000e+08 +4.23299163841692888122e-02 +1.63665590336832048046e-02 +9.56534334958495713330e-01 -2.40300380511154938745e-02 +9.56534334958495713330e-01 -2.40300380511154938745e-02 +4.25108065206706575712e-02 +1.66325904203859405162e-02
6.50000000000000000000e+08 +4.23404953282032966988e-02 +1.66245928840603879317e-02 +9.56520001848120027255e-01 -2.44028349259071512811e-02 +9.56520001848120027255e-01 -2.44028349259071512811e-02 +4.25256532971855435998e-02 +1.68944548661614131480e-02
6.60000000000000000000e+08 +4.23512610507269168791e-02 +1.68825822433040194370e-02 +9.56505468818990345348e-01 -2.47756524029173336165e-02 +9.56505468818990345348e-01 -2.47756524029173336165e-02 +4.25407508766343853135e-02 +1.71562728770165082159e-02
6.70000000000000000000e+08 +4.23622125699284410305e-02 +1.71405283539688355066e-02 +9.56490734959895227973e-01 -2.51484889601822081406e-02 +9.56490734959895227973e-01 -2.51484889601822081406e-02 +4.25560983553596242079e-02 +1.74180454979505107416e-02
6.80000000000000000000e+08 +4.23733489714965202988e-02 +1.73984323864226214651e-02 +9.56475799424468919874e-01 -2.55213431446956080795e-02 +9.56475799424468919874e-01 -2.55213431446956080795e-02 +4.25716948912107512326e-02 +1.76797737080763260609e-02
6.90000000000000000000e+08 +4.23846694030735882119e-02 +1.76562954432737395649e-02 +9.56460661425890035225e-01 -2.58942135681822400983e-02 +9.56460661425890035225e-01 -2.58942135681822400983e-02 +4.25875396984809889700e-02 +1.79414584246623681763e-02
7.00000000000000000000e+08 +4.23961730692275218235e-02 +1.79141185634936125903e-02 +9.56445320232081619416e-01 -2.62670989031626271604e-02 +9.56445320232081619416e-01 -2.62670989031626271604e-02 +4.26036320433169357624e-02 +1.82031005068959902959e-02
7.10000000000000000000e+08 +4.24078592268893397876e-02 +1.81719027262562254910e-02 +9.56429775161356743318e-01 -2.66399978792880506862e-02 +9.56429775161356743318e-01 -2.66399978792880506862e-02 +4.26199712395539526133e-02 +1.84647007593886844368e-02
7.20000000000000000000e+08 +4.24197271812059711893e-02 +1.84296488545158225481e-02 +9.56414025578458892873e-01 -2.70129092799254073853e-02 +9.56414025578458892873e-01 -2.70129092799254073853e-02 +4.26365566449300806284e-02 +1.87262599354421910292e-02
7.30000000000000000000e+08 +4.24317762817691540578e-02 +1.86873578183416461096e-02 +9.56398070890961737867e-01 -2.73858319389740437200e-02 +9.56398070890961737867e-01 -2.73858319389740437200e-02 +4.26533876576437251393e-02 +1.89877787400929767814e-02
7.40000000000000000000e+08 +4.24440059191778309988e-02 +1.89450304380279904715e-02 +9.56381910545983426886e-01 -2.77587647378970923950e-02 +9.56381910545983426886e-01 -2.77587647378970923950e-02 +4.26704637132155131796e-02 +1.92492578329512900592e-02
7.50000000000000000000e+08 +4.24564155219068553593e-02 +1.92026674869958530190e-02 +9.56365544027204306232e-01 -2.81317066029519585735e-02 +9.56365544027204306232e-01 -2.81317066029519585735e-02 +4.26877842816297189965e-02 +1.95106978308503646591e-02
7.60000000000000000000e+08 +4.24690045534458840426e-02 +1.94602696945014620733e-02 +9.56348970852127999720e-01 -2.85046565026047804547e-02 +9.56348970852127999720e-01 -2.85046565026047804547e-02 +4.27053488647226447972e-02 +1.97720993103190564866e-02
7.70000000000000000000e+08 +4.24817725096831369513e-02 +1.97178377481655592307e-02 +9.56332190569587625717e-01 -2.88776134451164401273e-02 +9.56332190569587625717e-01 -2.88776134451164401273e-02 +4.27231569937941979553e-02 +2.00334628098908749949e-02
7.80000000000000000000e+08 +4.24947189165170158276e-02 +1.99753722963371578569e-02 +9.56315202757464510874e-01 -2.92505764762863613992e-02 +9.56315202757464510874e-01 -2.92505764762863613992e-02 +4.27412082274276419747e-02 +2.02947888322620520474e-02
7.90000000000000000000e+08 +4.25078433276630390791e-02 +2.02328739503028764979e-02 +9.56298007020594087457e-01 -2.96235446773438111656e-02 +9.56298007020594087457e-01 -2.96235446773438111656e-02 +4.27595021494877602919e-02 +2.05560778463085291889e-02
