# HZ S RI R 50
1.00000000000000000000e+07 +1.16691371798900012102e+00 -2.46552819010000229261e-01 -3.52425313950000003160e+01 +5.42687807009999723107e+00 -2.04166232135999901887e-03 +3.09271011487999942721e-03 +3.35617734513000032237e-01 -4.11233395339999363571e-02
2.00000000000000000000e+07 +1.14572268724799997131e+00 -2.64832246299999962691e-01 -3.48607742310000006114e+01 +5.75081081319999665169e+00 -1.78867410861999979327e-03 +3.31435482936000020554e-03 +3.31081581135999947207e-01 -4.62015151979999968979e-02
3.00000000000000000000e+07 +1.12453165650700026568e+00 -2.83111673590000001433e-01 -3.44790170670000009068e+01 +6.07474355629999607231e+00 -1.53568589588000013399e-03 +3.53599954384000055019e-03 +3.26545427758999973200e-01 -5.12796908619999880496e-02
4.00000000000000000000e+07 +1.10334062576600033800e+00 -3.01391100879999984663e-01 -3.40972599030000012021e+01 +6.39867629939999549293e+00 -1.28269768314000004103e-03 +3.75764425832000089484e-03 +3.22009274381999999193e-01 -5.63578665259999792014e-02
5.00000000000000000000e+07 +1.08214959502500018829e+00 -3.19670528170000300960e-01 -3.37155027390000014975e+01 +6.72260904250000024263e+00 -1.02970947039999951439e-03 +3.97928897280000123948e-03 +3.17473121004999914163e-01 -6.14360421900000050477e-02
6.00000000000000000000e+07 +1.06095856428400026061e+00 -3.37949955460000173169e-01 -3.33337455750000017929e+01 +7.04654178559999433418e+00 -7.76721257660000288792e-04 +4.20093368727999898204e-03 +3.12936967627999940156e-01 -6.65142178539999961995e-02
7.00000000000000000000e+07 +1.03976753354300011090e+00 -3.56229382750000211910e-01 -3.29519884110000020883e+01 +7.37047452869999641933e+00 -5.23733044920000195832e-04 +4.42257840176000106142e-03 +3.08400814250999966148e-01 -7.15923935179999804124e-02
8.00000000000000000000e+07 +1.01857650280199996118e+00 -3.74508810040000250652e-01 -3.25702312470000023836e+01 +7.69440727179999850449e+00 -2.70744832179999235511e-04 +4.64422311624000053870e-03 +3.03864660873999992141e-01 -7.66705691820000062586e-02
9.00000000000000000000e+07 +9.97385472061000144528e-01 -3.92788237330000122860e-01 -3.21884740830000026790e+01 +8.01834001489999970147e+00 -1.77566194400004435938e-05 +4.86586783072000001599e-03 +2.99328507497000018134e-01 -8.17487448459999627159e-02
1.00000000000000000000e+08 +9.76194441320000105833e-01 -4.11067664620000106090e-01 -3.18067169190000065271e+01 +8.34227275799999645756e+00 +2.35231593300000516727e-04 +5.08751254520000036063e-03 +2.94792354120000044126e-01 -8.68269205099999885622e-02
1.10000000000000000000e+08 +9.55003410578999956115e-01 -4.29347091909999978299e-01 -3.14249597550000032697e+01 +8.66620550109999676636e+00 +4.88219806040000392847e-04 +5.30915725967999983792e-03 +2.90256200742999959097e-01 -9.19050961740000144085e-02
1.20000000000000000000e+08 +9.33812379837999917420e-01 -4.47626519200000183574e-01 -3.10432025909999929070e+01 +8.99013824419999885151e+00 +7.41208018780000268966e-04 +5.53080197416000104993e-03 +2.85720047366000096112e-01 -9.69832718379999708658e-02
1.30000000000000000000e+08 +9.12621349096999989747e-01 -4.65905946490000111293e-01 -3.06614454269999967551e+01 +9.31407098729999738396e+00 +9.94196231520000145085e-04 +5.75244668864000052722e-03 +2.81183893989000011082e-01 -1.02061447501999996712e-01
1.40000000000000000000e+08 +8.91430318355999951052e-01 -4.84185373780000150035e-01 -3.02796882629999934977e+01 +9.63800373039999946911e+00 +1.24718444426000002120e-03 +5.97409140312000000450e-03 +2.76647740612000037075e-01 -1.07139623166000008680e-01
1.50000000000000000000e+08 +8.70239287614999912357e-01 -5.02464801070000133265e-01 -2.98979310990000008985e+01 +9.96193647349999977791e+00 +1.50017265699999989732e-03 +6.19573611760000121651e-03 +2.72111587235000063068e-01 -1.12217798829999979016e-01
1.60000000000000000000e+08 +8.49048256873999873662e-01 -5.20744228360000005473e-01 -2.95161739350000011939e+01 +1.02858692166000000867e+01 +1.75316086973999999028e-03 +6.41738083208000069380e-03 +2.67575433857999978038e-01 -1.17295974493999990984e-01
1.70000000000000000000e+08 +8.27857226132999945989e-01 -5.39023655649999988704e-01 -2.91344167709999979365e+01 +1.06098019596999986192e+01 +2.00614908248000030008e-03 +6.63902554656000017108e-03 +2.63039280481000004031e-01 -1.22374150157999989075e-01
1.80000000000000000000e+08 +8.06666195392000129338e-01 -5.57303082940000193979e-01 -2.87526596069999982319e+01 +1.09337347027999971516e+01 +2.25913729521999995936e-03 +6.86067026104000138309e-03 +2.58503127104000030023e-01 -1.27452325821999973288e-01
1.90000000000000000000e+08 +7.85475164651000090643e-01 -5.75582510230000066187e-01 -2.83709024430000020800e+01 +1.12576674458999992368e+01 +2.51212550796000005232e-03 +7.08231497551999912565e-03 +2.53966973726999944994e-01 -1.32530501486000013012e-01
2.00000000000000000000e+08 +7.64284133910000051948e-01 -5.93861937520000049417e-01 -2.79891452789999988227e+01 +1.15816001889999995456e+01 +2.76511372070000014528e-03 +7.30395969000000033766e-03 +2.49430820349999970986e-01 -1.37608677149999997225e-01
2.10000000000000000000e+08 +7.43093103169000013253e-01 -6.12141364810000032648e-01 -2.76073881149999955653e+01 +1.19055329320999998544e+01 +3.01810193344000023824e-03 +7.52560440448000154967e-03 +2.44894666972999996979e-01 -1.42686852813999981437e-01
2.20000000000000000000e+08 +7.21902072427999863535e-01 -6.30420792100000126901e-01 -2.72256309509999958607e+01 +1.22294656752000001632e+01 +3.27109014618000033120e-03 +7.74724911895999929223e-03 +2.40358513596000022972e-01 -1.47765028478000021162e-01
2.30000000000000000000e+08 +7.00711041686999935862e-01 -6.48700219389999999109e-01 -2.68438737869999997088e+01 +1.25533984182999986956e+01 +3.52407835891999999048e-03 +7.96889383343999876952e-03 +2.35822360219000048964e-01 -1.52843204142000005374e-01
2.40000000000000000000e+08 +6.79520010946000119212e-01 -6.66979646680000093362e-01 -2.64621166230000035569e+01 +1.28773311613999990044e+01 +3.77706657166000008344e-03 +8.19053854791999824680e-03 +2.31286206841999963935e-01 -1.57921379805999989587e-01
2.50000000000000000000e+08 +6.58328980205000080517e-01 -6.85259073969999965570e-01 -2.60803594589999967468e+01 +1.32012639044999975368e+01 +4.03005478440000061008e-03 +8.41218326240000119354e-03 +2.26750053464999989927e-01 -1.62999555470000001556e-01
2.60000000000000000000e+08 +6.37137949464000041822e-01 -7.03538501260000059823e-01 -2.56986022950000005949e+01 +1.35251966475999996220e+01 +4.28304299713999983568e-03 +8.63382797688000067082e-03 +2.22213900088000015920e-01 -1.68077731134000013524e-01
2.70000000000000000000e+08 +6.15946918723000003126e-01 -7.21817928550000043053e-01 -2.53168451309999973375e+01 +1.38491293907000017072e+01 +4.53603120988000079600e-03 +8.85547269136000014811e-03 +2.17677746711000041913e-01 -1.73155906797999997737e-01
2.80000000000000000000e+08 +5.94755887981999964431e-01 -7.40097355840000026284e-01 -2.49350879669999976329e+01 +1.41730621338000020160e+01 +4.78901942262000002160e-03 +9.07711740583999962539e-03 +2.13141593334000067905e-01 -1.78234082462000037461e-01
2.90000000000000000000e+08 +5.73564857241000036758e-01 -7.58376783130000120536e-01 -2.45533308029999979283e+01 +1.44969948769000023248e+01 +5.04200763536000011455e-03 +9.29876212031999910268e-03 +2.08605439956999982876e-01 -1.83312258125999966163e-01
3.00000000000000000000e+08 +5.52373826499999998063e-01 -7.76656210419999992745e-01 -2.41715736389999982237e+01 +1.48209276200000008572e+01 +5.29499584810000020751e-03 +9.52040683479999857997e-03 +2.04069286580000008868e-01 -1.88390433790000005887e-01
3.10000000000000000000e+08 +5.30577066536999986113e-01 -7.86924362180000058764e-01 -2.37686859131999952410e+01 +1.50145533562000004224e+01 +5.55836069399000005237e-03 +9.64156324042000217878e-03 +1.98866520817999936632e-01 -1.91489358248000007823e-01
3.20000000000000000000e+08 +5.08780306573999974162e-01 -7.97192513939999902739e-01 -2.33657981873999993638e+01 +1.52081790924000017640e+01 +5.82172553987999989722e-03 +9.76271964604000230814e-03 +1.93663755055999975419e-01 -1.94588282706000009759e-01
3.30000000000000000000e+08 +4.86983546610999962212e-01 -8.07460665699999968759e-01 -2.29629104615999999339e+01 +1.54018048286000013292e+01 +6.08509038577000060943e-03 +9.88387605166000243750e-03 +1.88460989294000014205e-01 -1.97687207163999983939e-01
3.40000000000000000000e+08 +4.65186786648000061284e-01 -8.17728817459999923756e-01 -2.25600227358000005040e+01 +1.55954305648000008944e+01 +6.34845523166000045429e-03 +1.00050324572799990974e-02 +1.83258223531999941969e-01 -2.00786131622000013630e-01
3.50000000000000000000e+08 +4.43390026684999938311e-01 -8.27996969219999878753e-01 -2.21571350100000010741e+01 +1.57890563009999986832e+01 +6.61182007755000029914e-03 +1.01261888628999992268e-02 +1.78055457769999980755e-01 -2.03885056080000015566e-01
3.60000000000000000000e+08 +4.21593266721999926361e-01 -8.38265120979999944772e-01 -2.17542472842000016442e+01 +1.59826820371999982484e+01 +6.87518492344000014399e-03 +1.02473452685200028256e-02 +1.72852692008000019541e-01 -2.06983980538000017502e-01
3.70000000000000000000e+08 +3.99796506759000025433e-01 -8.48533272740000010792e-01 -2.13513595584000022143e+01 +1.61763077733999978136e+01 +7.13854976932999998884e-03 +1.03685016741399994855e-02 +1.67649926246000058327e-01 -2.10082904996000019437e-01
3.80000000000000000000e+08 +3.77999746796000013482e-01 -8.58801424499999854767e-01 -2.09484718325999992317e+01 +1.63699335095999991552e+01 +7.40191461522000070106e-03 +1.04896580797599996149e-02 +1.62447160483999986091e-01 -2.13181829453999993618e-01
3.90000000000000000000e+08 +3.56202986832999890510e-01 -8.69069576260000031809e-01 -2.05455841067999998018e+01 +1.65635592458000004967e+01 +7.66527946111000054591e-03 +1.06108144853799962748e-02 +1.57244394722000024878e-01 -2.16280753912000023309e-01
4.00000000000000000000e+08 +3.34406226869999989582e-01 -8.79337728019999986806e-01 -2.01426963810000003718e+01 +1.67571849819999982856e+01 +7.92864430700000039076e-03 +1.07319708909999964042e-02 +1.52041628960000063664e-01 -2.19379678369999997489e-01
4.10000000000000000000e+08 +3.14501781759000009764e-01 -8.83002293106999958106e-01 -1.97719470981000000620e+01 +1.68249847408999997356e+01 +8.15852535889999980201e-03 +1.07832693492000003532e-02 +1.47779408100000009263e-01 -2.20931801200999977652e-01
4.20000000000000000000e+08 +2.94597336648000029946e-01 -8.86666858193999929405e-01 -1.94011978151999997522e+01 +1.68927844998000011856e+01 +8.38840641080000094798e-03 +1.08345678074000043023e-02 +1.43517187239999954862e-01 -2.22483924032000013327e-01
4.30000000000000000000e+08 +2.74692891536999939106e-01 -8.90331423281000011727e-01 -1.90304485322999994423e+01 +1.69605842586999955302e+01 +8.61828746270000035923e-03 +1.08858662656000013125e-02 +1.39254966380000011483e-01 -2.24036046862999993490e-01
4.40000000000000000000e+08 +2.54788446425999959288e-01 -8.93995988368000094049e-01 -1.86596992493999991325e+01 +1.70283840175999969802e+01 +8.84816851459999977048e-03 +1.09371647237999983227e-02 +1.34992745520000068105e-01 -2.25588169694000001408e-01
4.50000000000000000000e+08 +2.34884001314999979471e-01 -8.97660553454999954326e-01 -1.82889499665000023754e+01 +1.70961837764999984302e+01 +9.07804956650000091645e-03 +1.09884631820000022717e-02 +1.30730524660000013704e-01 -2.27140292524999981572e-01
4.60000000000000000000e+08 +2.14979556203999999653e-01 -9.01325118542000036648e-01 -1.79182006836000020655e+01 +1.71639835353999998802e+01 +9.30793061840000032769e-03 +1.10397616401999992819e-02 +1.26468303800000070325e-01 -2.28692415355999989490e-01
4.70000000000000000000e+08 +1.95075111093000019835e-01 -9.04989683629000007947e-01 -1.75474514007000017557e+01 +1.72317832942999977774e+01 +9.53781167029999973894e-03 +1.10910600983999962921e-02 +1.22206082940000015924e-01 -2.30244538186999997409e-01
4.80000000000000000000e+08 +1.75170665982000040017e-01 -9.08654248715999979247e-01 -1.71767021178000014459e+01 +1.72995830531999956747e+01 +9.76769272219999915019e-03 +1.11423585566000002411e-02 +1.17943862079999961523e-01 -2.31796661018000033083e-01
4.90000000000000000000e+08 +1.55266220870999949177e-01 -9.12318813802999950546e-01 -1.68059528349000011360e+01 +1.73673828120999971247e+01 +9.99757377410000029616e-03 +1.11936570147999972513e-02 +1.13681641220000018144e-01 -2.33348783849000013246e-01
5.00000000000000000000e+08 +1.35361775759999969360e-01 -9.15983378890000032868e-01 -1.64352035520000008262e+01 +1.74351825709999985747e+01 +1.02274548259999997074e-02 +1.12449554730000012004e-02 +1.09419420359999963743e-01 -2.34900906679999993409e-01
5.10000000000000000000e+08 +1.18432259935900008330e-01 -9.16154128315999960464e-01 -1.61210089680999999473e+01 +1.74368772503000002416e+01 +1.04334595610999988913e-02 +1.12484153362999994563e-02 +1.05515795199700002094e-01 -2.35760273037999984469e-01
5.20000000000000000000e+08 +1.01502744111800047300e-01 -9.16324877742000110104e-01 -1.58068143842000008448e+01 +1.74385719295999983558e+01 +1.06394642962000015446e-02 +1.12518751995999977122e-02 +1.01612170039400040444e-01 -2.36619639396000031040e-01
5.30000000000000000000e+08 +8.45732282876999752474e-02 -9.16495627168000037699e-01 -1.54926198003000017422e+01 +1.74402666089000000227e+01 +1.08454690313000007285e-02 +1.12553350628999959682e-02 +9.77085448790999677726e-02 -2.37479005753999994344e-01
5.40000000000000000000e+08 +6.76437124636000142175e-02 -9.16666376593999965294e-01 -1.51784252163999990870e+01 +1.74419612881999981369e+01 +1.10514737663999999123e-02 +1.12587949262000011630e-02 +9.38049197188000061232e-02 -2.38338372111999985403e-01
5.50000000000000000000e+08 +5.07141966394999421652e-02 -9.16837126020000003912e-01 -1.48642306324999999845e+01 +1.74436559674999998037e+01 +1.12574785014999990962e-02 +1.12622547894999994189e-02 +8.99012945584999334514e-02 -2.39197738470000004218e-01
5.60000000000000000000e+08 +3.37846808153999811353e-02 -9.17007875446000153552e-01 -1.45500360486000008819e+01 +1.74453506467999979179e+01 +1.14634832366000000148e-02 +1.12657146527999976748e-02 +8.59976693981999718019e-02 -2.40057104827999995278e-01
5.70000000000000000000e+08 +1.68551649913000201053e-02 -9.17178624871999970125e-01 -1.42358414647000000031e+01 +1.74470453260999995848e+01 +1.16694879717000009334e-02 +1.12691745160999959308e-02 +8.20940442379000101525e-02 -2.40916471185999958582e-01
5.80000000000000000000e+08 -7.43508328000519469470e-05 -9.17349374298000008743e-01 -1.39216468807999991242e+01 +1.74487400054000012517e+01 +1.18754927068000001172e-02 +1.12726343794000011256e-02 +7.81904190775999374807e-02 -2.41775837544000005153e-01
5.90000000000000000000e+08 -1.70038666569000129769e-02 -9.17520123724000047361e-01 -1.36074522968999982453e+01 +1.74504346846999993659e+01 +1.20814974418999993011e-02 +1.12760942427000063204e-02 +7.42867939172999758313e-02 -2.42635203901999968457e-01
6.00000000000000000000e+08 -3.39333824809999740069e-02 -9.17690873149999974956e-01 -1.32932577129999991428e+01 +1.74521293640000010328e+01 +1.22875021770000002197e-02 +1.12795541059999976374e-02 +7.03831687570000141818e-02 -2.43494570259999987272e-01
6.10000000000000000000e+08 -4.84271090479000410056e-02 -9.15219187739999995301e-01 -1.30289732929999964028e+01 +1.74094804763999988495e+01 +1.24514879657999979340e-02 +1.12527769988000000967e-02 +6.69887371362000161312e-02 -2.43532454971999934301e-01
6.20000000000000000000e+08 -6.29208356147999969821e-02 -9.12747502329999904624e-01 -1.27646888729999989920e+01 +1.73668315888000002190e+01 +1.26154737546000008525e-02 +1.12259998916000025559e-02 +6.35943055154000180806e-02 -2.43570339683999992353e-01
6.30000000000000000000e+08 -7.74145621816999529585e-02 -9.10275816920000035992e-01 -1.25004044529999998048e+01 +1.73241827011999980357e+01 +1.27794595434000020362e-02 +1.11992227843999980763e-02 +6.01998738946000200301e-02 -2.43608224395999994893e-01
6.40000000000000000000e+08 -9.19082887486000199573e-02 -9.07804131509999945315e-01 -1.22361200329999988412e+01 +1.72815338136000029579e+01 +1.29434453322000014852e-02 +1.11724456771999935967e-02 +5.68054422738000219795e-02 -2.43646109107999997434e-01
6.50000000000000000000e+08 -1.06402015315499975934e-01 -9.05332446099999965661e-01 -1.19718356129999996540e+01 +1.72388849260000007746e+01 +1.31074311210000009342e-02 +1.11456685699999960559e-02 +5.34110106530000239289e-02 -2.43683993819999999975e-01
6.60000000000000000000e+08 -1.20895741882400042932e-01 -9.02860760690000097028e-01 -1.17075511929999986904e+01 +1.71962360384000021440e+01 +1.32714169098000003832e-02 +1.11188914627999985152e-02 +5.00165790322000258783e-02 -2.43721878532000002515e-01
6.70000000000000000000e+08 -1.35389468449299998909e-01 -9.00389075280000006352e-01 -1.14432667729999995032e+01 +1.71535871507999999608e+01 +1.34354026986000015670e-02 +1.10921143556000009744e-02 +4.66221474114000278277e-02 -2.43759763244000005056e-01
6.80000000000000000000e+08 -1.49883195016200065908e-01 -8.97917389870000026697e-01 -1.11789823530000003160e+01 +1.71109382631999977775e+01 +1.35993884874000010160e-02 +1.10653372484000034337e-02 +4.32277157906000297771e-02 -2.43797647956000007596e-01
6.90000000000000000000e+08 -1.64376921583100021884e-01 -8.95445704459999936020e-01 -1.09146979329999993524e+01 +1.70682893756000026997e+01 +1.37633742762000004650e-02 +1.10385601411999989541e-02 +3.98332841698000317265e-02 -2.43835532668000010137e-01
7.00000000000000000000e+08 -1.78870648149999977861e-01 -8.92974019049999956366e-01 -1.06504135130000001652e+01 +1.70256404880000005164e+01 +1.39273600649999999140e-02 +1.10117830339999944744e-02 +3.64388525490000336760e-02 -2.43873417380000012677e-01
7.10000000000000000000e+08 -1.90467381481000064269e-01 -8.89234250783000002016e-01 -1.04393680570900002635e+01 +1.69597978595000000723e+01 +1.40645613891000002132e-02 +1.09743390235999965787e-02 +3.38707568127999403274e-02 -2.43895763160999978769e-01
7.20000000000000000000e+08 -2.02064114812000039656e-01 -8.85494482515999936645e-01 -1.02283226011799985855e+01 +1.68939552309999996282e+01 +1.42017627132000005125e-02 +1.09368950131999986830e-02 +3.13026610765999580011e-02 -2.43918108942000000372e-01
7.30000000000000000000e+08 -2.13660848143000015043e-01 -8.81754714248999982296e-01 -1.00172771452699986838e+01 +1.68281126024999991841e+01 +1.43389640372999990769e-02 +1.08994510028000007873e-02 +2.87345653403999756748e-02 -2.43940454722999994219e-01
7.40000000000000000000e+08 -2.25257581473999990429e-01 -8.78014945981999916924e-01 -9.80623168935999878215e+00 +1.67622699740000022928e+01 +1.44761653613999993762e-02 +1.08620069924000028916e-02 +2.61664696041999933485e-02 -2.43962800503999988067e-01
7.50000000000000000000e+08 -2.36854314804999965816e-01 -8.74275177714999962575e-01 -9.59518623345000065683e+00 +1.66964273454999982960e+01 +1.46133666855000014101e-02 +1.08245629820000049959e-02 +2.35983738680000110222e-02 -2.43985146285000009669e-01
7.60000000000000000000e+08 -2.48451048136000052224e-01 -8.70535409447999897203e-01 -9.38414077753999897880e+00 +1.66305847169999978519e+01 +1.47505680096000017093e-02 +1.07871189716000071002e-02 +2.10302781318000286959e-02 -2.44007492066000031272e-01
7.70000000000000000000e+08 -2.60047781466999916589e-01 -8.66795641181000053876e-01 -9.17309532162999907712e+00 +1.65647420884999974078e+01 +1.48877693337000002738e-02 +1.07496749611999953267e-02 +1.84621823956000463696e-02 -2.44029837846999997364e-01
7.80000000000000000000e+08 -2.71644514798000002997e-01 -8.63055872913999988505e-01 -8.96204986571999917544e+00 +1.64988994600000005164e+01 +1.50249706578000005730e-02 +1.07122309507999974310e-02 +1.58940866593999530210e-02 -2.44052183628000018967e-01
7.90000000000000000000e+08 -2.83241248128999978384e-01 -8.59316104647000034156e-01 -8.75100440980999927376e+00 +1.64330568315000000723e+01 +1.51621719818999991375e-02 +1.06747869403999995352e-02 +1.33259909231999706947e-02 -2.44074529408999985058e-01
