# Hz S RI R 50
1.000000e+07	-8.706929e-01	2.462053e-03
2.000000e+07	-8.710471e-01	4.791344e-03
3.000000e+07	-8.700738e-01	4.902275e-03
4.000000e+07	-8.689337e-01	6.433762e-03
5.000000e+07	-8.694215e-01	7.227640e-03
6.000000e+07	-8.685189e-01	7.107177e-03
7.000000e+07	-8.673555e-01	8.316430e-03
8.000000e+07	-8.678417e-01	8.181779e-03
9.000000e+07	-8.684661e-01	9.703887e-03
1.000000e+08	-8.681659e-01	1.128108e-02
1.100000e+08	-8.675030e-01	1.179917e-02
1.200000e+08	-8.666773e-01	1.314634e-02
1.300000e+08	-8.669425e-01	1.278694e-02
1.400000e+08	-8.662729e-01	1.425216e-02
1.500000e+08	-8.665832e-01	1.409868e-02
1.600000e+08	-8.659504e-01	1.453391e-02
1.700000e+08	-8.660639e-01	1.531027e-02
1.800000e+08	-8.660921e-01	1.615786e-02
1.900000e+08	-8.663251e-01	1.772740e-02
2.000000e+08	-8.657746e-01	1.826794e-02
2.100000e+08	-8.648749e-01	1.914423e-02
2.200000e+08	-8.647022e-01	1.968632e-02
2.300000e+08	-8.644198e-01	2.056320e-02
2.400000e+08	-8.642626e-01	2.162562e-02
2.500000e+08	-8.643065e-01	2.164065e-02
2.600000e+08	-8.637498e-01	2.217473e-02
2.700000e+08	-8.640723e-01	2.269585e-02
2.800000e+08	-8.640303e-01	2.316483e-02
2.900000e+08	-8.641798e-01	2.422081e-02
3.000000e+08	-8.649199e-01	2.504464e-02
3.100000e+08	-8.644075e-01	2.538251e-02
3.200000e+08	-8.626102e-01	2.647731e-02
3.300000e+08	-8.625787e-01	2.610208e-02
3.400000e+08	-8.622688e-01	2.785434e-02
3.500000e+08	-8.625078e-01	2.832047e-02
3.600000e+08	-8.620116e-01	2.902163e-02
3.700000e+08	-8.623286e-01	2.962474e-02
3.800000e+08	-8.617347e-01	3.049218e-02
3.900000e+08	-8.615660e-01	3.049722e-02
4.000000e+08	-8.613849e-01	3.171376e-02
4.100000e+08	-8.612618e-01	3.244385e-02
4.200000e+08	-8.612840e-01	3.135494e-02
4.300000e+08	-8.614472e-01	3.348872e-02
4.400000e+08	-8.610852e-01	3.482805e-02
4.500000e+08	-8.605879e-01	3.427077e-02
4.600000e+08	-8.602941e-01	3.546942e-02
4.700000e+08	-8.594369e-01	3.596186e-02
4.800000e+08	-8.594085e-01	3.677158e-02
4.900000e+08	-8.595053e-01	3.678443e-02
5.000000e+08	-8.590255e-01	3.792955e-02
5.100000e+08	-8.586867e-01	3.784024e-02
5.200000e+08	-8.592773e-01	3.866484e-02
5.300000e+08	-8.586162e-01	3.904274e-02
5.400000e+08	-8.588262e-01	3.988629e-02
5.500000e+08	-8.588699e-01	4.037492e-02
5.600000e+08	-8.585421e-01	4.135436e-02
5.700000e+08	-8.583059e-01	4.162211e-02
5.800000e+08	-8.585677e-01	4.246475e-02
5.900000e+08	-8.577184e-01	4.318340e-02
6.000000e+08	-8.572644e-01	4.463884e-02
6.100000e+08	-8.577643e-01	4.360987e-02
6.200000e+08	-8.583203e-01	4.410600e-02
6.300000e+08	-8.579968e-01	4.551243e-02
6.400000e+08	-8.570912e-01	4.632099e-02
6.500000e+08	-8.569800e-01	4.706782e-02
6.600000e+08	-8.575283e-01	4.758883e-02
6.700000e+08	-8.567106e-01	4.821599e-02
6.800000e+08	-8.559622e-01	4.962632e-02
6.900000e+08	-8.563482e-01	5.024977e-02
7.000000e+08	-8.548101e-01	4.977777e-02
7.100000e+08	-8.548407e-01	5.079437e-02
7.200000e+08	-8.548262e-01	5.195003e-02
7.300000e+08	-8.541505e-01	5.166068e-02
7.400000e+08	-8.545940e-01	5.201477e-02
7.500000e+08	-8.536426e-01	5.347064e-02
7.600000e+08	-8.539656e-01	5.418230e-02
7.700000e+08	-8.536720e-01	5.362738e-02
7.800000e+08	-8.529163e-01	5.495777e-02
7.900000e+08	-8.522092e-01	5.430353e-02
8.000000e+08	-8.530668e-01	5.542280e-02
8.100000e+08	-8.524411e-01	5.558438e-02
8.200000e+08	-8.525324e-01	5.626319e-02
8.300000e+08	-8.520344e-01	5.697233e-02
8.400000e+08	-8.516629e-01	5.734454e-02
8.500000e+08	-8.517711e-01	5.620776e-02
8.600000e+08	-8.510335e-01	5.779474e-02
8.700000e+08	-8.513957e-01	5.825096e-02
8.800000e+08	-8.511790e-01	5.987053e-02
8.900000e+08	-8.511203e-01	5.940971e-02
9.000000e+08	-8.510685e-01	6.037633e-02
9.100000e+08	-8.508806e-01	6.051117e-02
9.200000e+08	-8.511038e-01	6.032353e-02
9.300000e+08	-8.521731e-01	6.128977e-02
9.400000e+08	-8.521888e-01	6.284153e-02
9.500000e+08	-8.503057e-01	6.398122e-02
9.600000e+08	-8.512663e-01	6.474157e-02
9.700000e+08	-8.512382e-01	6.538749e-02
9.800000e+08	-8.512030e-01	6.686653e-02
9.900000e+08	-8.501783e-01	6.754613e-02
1.000000e+09	-8.492491e-01	6.747909e-02
1.010000e+09	-8.483752e-01	6.762833e-02
1.020000e+09	-8.486751e-01	6.818977e-02
1.030000e+09	-8.482332e-01	6.851271e-02
1.040000e+09	-8.488305e-01	6.892362e-02
1.050000e+09	-8.471959e-01	6.995429e-02
1.060000e+09	-8.478636e-01	7.045959e-02
1.070000e+09	-8.476066e-01	7.058548e-02
1.080000e+09	-8.469796e-01	7.115711e-02
1.090000e+09	-8.470637e-01	7.207261e-02
1.100000e+09	-8.464517e-01	7.137545e-02
1.110000e+09	-8.459801e-01	7.283698e-02
1.120000e+09	-8.453755e-01	7.296728e-02
1.130000e+09	-8.456354e-01	7.364685e-02
1.140000e+09	-8.450776e-01	7.351633e-02
1.150000e+09	-8.441001e-01	7.438416e-02
1.160000e+09	-8.443578e-01	7.476516e-02
1.170000e+09	-8.442984e-01	7.490818e-02
1.180000e+09	-8.438212e-01	7.475035e-02
1.190000e+09	-8.434798e-01	7.489073e-02
1.200000e+09	-8.439989e-01	7.510455e-02
1.210000e+09	-8.432683e-01	7.619474e-02
1.220000e+09	-8.432151e-01	7.580778e-02
1.230000e+09	-8.433822e-01	7.580531e-02
1.240000e+09	-8.435621e-01	7.725701e-02
1.250000e+09	-8.437457e-01	7.791685e-02
1.260000e+09	-8.426643e-01	7.839758e-02
1.270000e+09	-8.421464e-01	7.820698e-02
1.280000e+09	-8.433956e-01	7.875913e-02
1.290000e+09	-8.424888e-01	7.945575e-02
1.300000e+09	-8.414028e-01	7.909741e-02
1.310000e+09	-8.426677e-01	7.803287e-02
1.320000e+09	-8.433251e-01	7.858521e-02
1.330000e+09	-8.440255e-01	7.750491e-02
1.340000e+09	-8.462858e-01	7.917197e-02
1.350000e+09	-8.468214e-01	8.234480e-02
1.360000e+09	-8.452527e-01	8.274017e-02
1.370000e+09	-8.450069e-01	8.389671e-02
1.380000e+09	-8.454204e-01	8.445461e-02
1.390000e+09	-8.455911e-01	8.507900e-02
1.400000e+09	-8.461905e-01	8.706969e-02
1.410000e+09	-8.455268e-01	8.909972e-02
1.420000e+09	-8.453586e-01	8.943680e-02
1.430000e+09	-8.456280e-01	8.966944e-02
1.440000e+09	-8.446266e-01	9.125672e-02
1.450000e+09	-8.437838e-01	9.142193e-02
1.460000e+09	-8.430229e-01	9.305317e-02
1.470000e+09	-8.415654e-01	9.352010e-02
1.480000e+09	-8.408846e-01	9.378461e-02
1.490000e+09	-8.409786e-01	9.363664e-02
1.500000e+09	-8.410175e-01	9.425528e-02
1.510000e+09	-8.403550e-01	9.390113e-02
1.520000e+09	-8.405069e-01	9.496909e-02
1.530000e+09	-8.410571e-01	9.519779e-02
1.540000e+09	-8.405186e-01	9.627511e-02
1.550000e+09	-8.409193e-01	9.743293e-02
1.560000e+09	-8.401007e-01	9.844631e-02
1.570000e+09	-8.392459e-01	9.916636e-02
1.580000e+09	-8.381936e-01	9.958585e-02
1.590000e+09	-8.385238e-01	9.947461e-02
1.600000e+09	-8.380914e-01	1.007152e-01
1.610000e+09	-8.373887e-01	1.007518e-01
1.620000e+09	-8.370970e-01	1.020715e-01
1.630000e+09	-8.362802e-01	1.026859e-01
1.640000e+09	-8.354882e-01	1.029033e-01
1.650000e+09	-8.346060e-01	1.026954e-01
1.660000e+09	-8.344354e-01	1.033443e-01
1.670000e+09	-8.344606e-01	1.030639e-01
1.680000e+09	-8.340691e-01	1.033875e-01
1.690000e+09	-8.339266e-01	1.038385e-01
1.700000e+09	-8.334846e-01	1.041226e-01
1.710000e+09	-8.321740e-01	1.042847e-01
1.720000e+09	-8.330728e-01	1.054562e-01
1.730000e+09	-8.332664e-01	1.049150e-01
1.740000e+09	-8.319448e-01	1.053152e-01
1.750000e+09	-8.323923e-01	1.060663e-01
1.760000e+09	-8.329149e-01	1.057499e-01
1.770000e+09	-8.325606e-01	1.058015e-01
1.780000e+09	-8.331150e-01	1.072760e-01
1.790000e+09	-8.327820e-01	1.077646e-01
1.800000e+09	-8.323701e-01	1.083461e-01
1.810000e+09	-8.323146e-01	1.095753e-01
1.820000e+09	-8.312030e-01	1.099493e-01
1.830000e+09	-8.310894e-01	1.102775e-01
1.840000e+09	-8.307411e-01	1.109160e-01
1.850000e+09	-8.309743e-01	1.111271e-01
1.860000e+09	-8.290804e-01	1.112392e-01
1.870000e+09	-8.302256e-01	1.123965e-01
1.880000e+09	-8.288547e-01	1.129004e-01
1.890000e+09	-8.287963e-01	1.133795e-01
1.900000e+09	-8.275883e-01	1.145708e-01
1.910000e+09	-8.282935e-01	1.147254e-01
1.920000e+09	-8.271051e-01	1.147945e-01
1.930000e+09	-8.266376e-01	1.149342e-01
1.940000e+09	-8.260758e-01	1.154920e-01
1.950000e+09	-8.258302e-01	1.150306e-01
1.960000e+09	-8.253935e-01	1.157002e-01
1.970000e+09	-8.245020e-01	1.159503e-01
1.980000e+09	-8.253575e-01	1.163024e-01
1.990000e+09	-8.245454e-01	1.157958e-01
2.000000e+09	-8.240858e-01	1.170969e-01
2.010000e+09	-8.242813e-01	1.169253e-01
2.020000e+09	-8.239897e-01	1.174474e-01
2.030000e+09	-8.237543e-01	1.173961e-01
2.040000e+09	-8.234561e-01	1.176390e-01
2.050000e+09	-8.238190e-01	1.176305e-01
2.060000e+09	-8.237883e-01	1.174405e-01
2.070000e+09	-8.238491e-01	1.186366e-01
2.080000e+09	-8.223785e-01	1.190615e-01
2.090000e+09	-8.216737e-01	1.182793e-01
2.100000e+09	-8.226316e-01	1.191166e-01
2.110000e+09	-8.227390e-01	1.186393e-01
2.120000e+09	-8.222625e-01	1.186897e-01
2.130000e+09	-8.227541e-01	1.198371e-01
2.140000e+09	-8.230891e-01	1.200021e-01
2.150000e+09	-8.234962e-01	1.215969e-01
2.160000e+09	-8.232789e-01	1.211535e-01
2.170000e+09	-8.232491e-01	1.213404e-01
2.180000e+09	-8.240545e-01	1.229268e-01
2.190000e+09	-8.231378e-01	1.228917e-01
2.200000e+09	-8.228393e-01	1.225456e-01
2.210000e+09	-8.231043e-01	1.240209e-01
2.220000e+09	-8.232718e-01	1.237629e-01
2.230000e+09	-8.234043e-01	1.241874e-01
2.240000e+09	-8.233280e-01	1.260028e-01
2.250000e+09	-8.228229e-01	1.254554e-01
2.260000e+09	-8.230005e-01	1.271467e-01
2.270000e+09	-8.231854e-01	1.262205e-01
2.280000e+09	-8.226547e-01	1.281068e-01
2.290000e+09	-8.224930e-01	1.269396e-01
2.300000e+09	-8.228543e-01	1.275439e-01
2.310000e+09	-8.231540e-01	1.289459e-01
2.320000e+09	-8.223165e-01	1.299781e-01
2.330000e+09	-8.221884e-01	1.307141e-01
2.340000e+09	-8.210759e-01	1.312276e-01
2.350000e+09	-8.205040e-01	1.321933e-01
2.360000e+09	-8.194609e-01	1.315188e-01
2.370000e+09	-8.205276e-01	1.303922e-01
2.380000e+09	-8.201624e-01	1.307886e-01
2.390000e+09	-8.206147e-01	1.314533e-01
2.400000e+09	-8.206990e-01	1.319945e-01
2.410000e+09	-8.225947e-01	1.318654e-01
2.420000e+09	-8.216065e-01	1.326549e-01
2.430000e+09	-8.224294e-01	1.334138e-01
2.440000e+09	-8.230043e-01	1.336992e-01
2.450000e+09	-8.216088e-01	1.356887e-01
2.460000e+09	-8.221397e-01	1.366433e-01
2.470000e+09	-8.214723e-01	1.368198e-01
2.480000e+09	-8.211956e-01	1.373268e-01
2.490000e+09	-8.213074e-01	1.383067e-01
2.500000e+09	-8.220539e-01	1.390001e-01
2.510000e+09	-8.212969e-01	1.398551e-01
2.520000e+09	-8.204225e-01	1.413921e-01
2.530000e+09	-8.202693e-01	1.422943e-01
2.540000e+09	-8.192791e-01	1.423271e-01
2.550000e+09	-8.196327e-01	1.420024e-01
2.560000e+09	-8.192050e-01	1.409375e-01
2.570000e+09	-8.207385e-01	1.416595e-01
2.580000e+09	-8.202269e-01	1.439162e-01
2.590000e+09	-8.195823e-01	1.434690e-01
2.600000e+09	-8.200375e-01	1.441828e-01
2.610000e+09	-8.200017e-01	1.455656e-01
2.620000e+09	-8.197433e-01	1.461709e-01
2.630000e+09	-8.203942e-01	1.461992e-01
2.640000e+09	-8.194865e-01	1.466998e-01
2.650000e+09	-8.194014e-01	1.480117e-01
2.660000e+09	-8.197018e-01	1.485590e-01
2.670000e+09	-8.202487e-01	1.498667e-01
2.680000e+09	-8.198746e-01	1.518737e-01
2.690000e+09	-8.192559e-01	1.521362e-01
2.700000e+09	-8.182735e-01	1.521412e-01
2.710000e+09	-8.188803e-01	1.529388e-01
2.720000e+09	-8.189985e-01	1.546336e-01
2.730000e+09	-8.180971e-01	1.549003e-01
2.740000e+09	-8.183787e-01	1.555521e-01
2.750000e+09	-8.176384e-01	1.564721e-01
2.760000e+09	-8.175156e-01	1.574597e-01
2.770000e+09	-8.173767e-01	1.586348e-01
2.780000e+09	-8.159998e-01	1.600702e-01
2.790000e+09	-8.164553e-01	1.603042e-01
2.800000e+09	-8.156600e-01	1.611722e-01
2.810000e+09	-8.145237e-01	1.618222e-01
2.820000e+09	-8.148533e-01	1.623959e-01
2.830000e+09	-8.143199e-01	1.626029e-01
2.840000e+09	-8.136295e-01	1.638351e-01
2.850000e+09	-8.126573e-01	1.630458e-01
2.860000e+09	-8.132280e-01	1.646666e-01
2.870000e+09	-8.123864e-01	1.656812e-01
2.880000e+09	-8.110173e-01	1.652944e-01
2.890000e+09	-8.113368e-01	1.664140e-01
2.900000e+09	-8.106027e-01	1.663116e-01
2.910000e+09	-8.110266e-01	1.666511e-01
2.920000e+09	-8.109304e-01	1.669712e-01
2.930000e+09	-8.102677e-01	1.676838e-01
2.940000e+09	-8.088384e-01	1.686539e-01
2.950000e+09	-8.079940e-01	1.692530e-01
2.960000e+09	-8.081548e-01	1.697566e-01
2.970000e+09	-8.089652e-01	1.693254e-01
2.980000e+09	-8.093507e-01	1.714094e-01
2.990000e+09	-8.084246e-01	1.711746e-01
3.000000e+09	-8.074518e-01	1.723017e-01
3.010000e+09	-8.075595e-01	1.733682e-01
3.020000e+09	-8.072291e-01	1.737498e-01
3.030000e+09	-8.075650e-01	1.742833e-01
3.040000e+09	-8.071789e-01	1.748540e-01
3.050000e+09	-8.066486e-01	1.758446e-01
3.060000e+09	-8.054364e-01	1.764395e-01
3.070000e+09	-8.056720e-01	1.760155e-01
3.080000e+09	-8.042190e-01	1.773957e-01
3.090000e+09	-8.042484e-01	1.779867e-01
3.100000e+09	-8.042401e-01	1.784934e-01
3.110000e+09	-8.030530e-01	1.778336e-01
3.120000e+09	-8.039989e-01	1.787141e-01
3.130000e+09	-8.038685e-01	1.801649e-01
3.140000e+09	-8.025794e-01	1.818280e-01
3.150000e+09	-8.017272e-01	1.820385e-01
3.160000e+09	-8.016358e-01	1.820027e-01
3.170000e+09	-8.012649e-01	1.829275e-01
3.180000e+09	-8.000015e-01	1.833152e-01
3.190000e+09	-7.994375e-01	1.838483e-01
3.200000e+09	-7.996416e-01	1.843025e-01
3.210000e+09	-7.981411e-01	1.851349e-01
3.220000e+09	-7.980585e-01	1.859552e-01
3.230000e+09	-7.977439e-01	1.861367e-01
3.240000e+09	-7.975861e-01	1.863830e-01
3.250000e+09	-7.970696e-01	1.868573e-01
3.260000e+09	-7.963937e-01	1.869526e-01
3.270000e+09	-7.960892e-01	1.877931e-01
3.280000e+09	-7.970273e-01	1.889848e-01
3.290000e+09	-7.945346e-01	1.896063e-01
3.300000e+09	-7.944715e-01	1.887590e-01
3.310000e+09	-7.940290e-01	1.900914e-01
3.320000e+09	-7.934797e-01	1.899297e-01
3.330000e+09	-7.932981e-01	1.906937e-01
3.340000e+09	-7.922090e-01	1.906661e-01
3.350000e+09	-7.918644e-01	1.916255e-01
3.360000e+09	-7.911812e-01	1.922407e-01
3.370000e+09	-7.907257e-01	1.921396e-01
3.380000e+09	-7.904447e-01	1.925977e-01
3.390000e+09	-7.893875e-01	1.934681e-01
3.400000e+09	-7.892389e-01	1.925123e-01
3.410000e+09	-7.890739e-01	1.930363e-01
3.420000e+09	-7.889945e-01	1.946360e-01
3.430000e+09	-7.880798e-01	1.945558e-01
3.440000e+09	-7.880945e-01	1.941339e-01
3.450000e+09	-7.876642e-01	1.952181e-01
3.460000e+09	-7.873622e-01	1.951663e-01
3.470000e+09	-7.875674e-01	1.960367e-01
3.480000e+09	-7.873855e-01	1.960478e-01
3.490000e+09	-7.862030e-01	1.953020e-01
3.500000e+09	-7.858810e-01	1.972852e-01
3.510000e+09	-7.864832e-01	1.978641e-01
3.520000e+09	-7.849462e-01	1.988377e-01
3.530000e+09	-7.856700e-01	1.988715e-01
3.540000e+09	-7.844589e-01	1.995317e-01
3.550000e+09	-7.837608e-01	2.001192e-01
3.560000e+09	-7.836021e-01	1.994053e-01
3.570000e+09	-7.833661e-01	1.996479e-01
3.580000e+09	-7.834432e-01	2.011456e-01
3.590000e+09	-7.821084e-01	2.022996e-01
3.600000e+09	-7.821865e-01	2.016718e-01
3.610000e+09	-7.811046e-01	2.031240e-01
3.620000e+09	-7.798927e-01	2.034548e-01
3.630000e+09	-7.796765e-01	2.037170e-01
3.640000e+09	-7.790736e-01	2.031227e-01
3.650000e+09	-7.797140e-01	2.035673e-01
3.660000e+09	-7.793478e-01	2.041847e-01
3.670000e+09	-7.780627e-01	2.044446e-01
3.680000e+09	-7.782053e-01	2.051096e-01
3.690000e+09	-7.776484e-01	2.042073e-01
3.700000e+09	-7.760850e-01	2.049189e-01
3.710000e+09	-7.762762e-01	2.052294e-01
3.720000e+09	-7.749694e-01	2.060931e-01
3.730000e+09	-7.756973e-01	2.061352e-01
3.740000e+09	-7.738959e-01	2.057139e-01
3.750000e+09	-7.744562e-01	2.066287e-01
3.760000e+09	-7.743314e-01	2.059694e-01
3.770000e+09	-7.752542e-01	2.066330e-01
3.780000e+09	-7.743292e-01	2.072246e-01
3.790000e+09	-7.737477e-01	2.077088e-01
3.800000e+09	-7.738031e-01	2.082942e-01
3.810000e+09	-7.728799e-01	2.079468e-01
3.820000e+09	-7.728010e-01	2.082656e-01
3.830000e+09	-7.718639e-01	2.087858e-01
3.840000e+09	-7.717560e-01	2.093999e-01
3.850000e+09	-7.718722e-01	2.091558e-01
3.860000e+09	-7.715086e-01	2.097502e-01
3.870000e+09	-7.719921e-01	2.100968e-01
3.880000e+09	-7.714170e-01	2.106196e-01
3.890000e+09	-7.719045e-01	2.111824e-01
3.900000e+09	-7.710894e-01	2.127260e-01
3.910000e+09	-7.705258e-01	2.123098e-01
3.920000e+09	-7.712128e-01	2.133747e-01
3.930000e+09	-7.707611e-01	2.152975e-01
3.940000e+09	-7.683473e-01	2.161602e-01
3.950000e+09	-7.669681e-01	2.156972e-01
3.960000e+09	-7.653031e-01	2.163941e-01
3.970000e+09	-7.653379e-01	2.153663e-01
3.980000e+09	-7.659371e-01	2.153652e-01
3.990000e+09	-7.649595e-01	2.152138e-01
4.000000e+09	-7.654947e-01	2.153684e-01
4.010000e+09	-7.659483e-01	2.160021e-01
4.020000e+09	-7.644228e-01	2.163223e-01
4.030000e+09	-7.651613e-01	2.165202e-01
4.040000e+09	-7.638741e-01	2.171080e-01
4.050000e+09	-7.644694e-01	2.176248e-01
4.060000e+09	-7.632987e-01	2.171255e-01
4.070000e+09	-7.628537e-01	2.173686e-01
4.080000e+09	-7.623289e-01	2.172796e-01
4.090000e+09	-7.623279e-01	2.178556e-01
4.100000e+09	-7.631555e-01	2.195538e-01
4.110000e+09	-7.633489e-01	2.189479e-01
4.120000e+09	-7.631422e-01	2.201260e-01
4.130000e+09	-7.626582e-01	2.202590e-01
4.140000e+09	-7.622162e-01	2.217713e-01
4.150000e+09	-7.611876e-01	2.216983e-01
4.160000e+09	-7.610474e-01	2.219563e-01
4.170000e+09	-7.601022e-01	2.228478e-01
4.180000e+09	-7.587008e-01	2.225849e-01
4.190000e+09	-7.576871e-01	2.217963e-01
4.200000e+09	-7.585532e-01	2.218539e-01
4.210000e+09	-7.594192e-01	2.215263e-01
4.220000e+09	-7.586397e-01	2.223662e-01
4.230000e+09	-7.593494e-01	2.229970e-01
4.240000e+09	-7.589481e-01	2.234009e-01
4.250000e+09	-7.594648e-01	2.232463e-01
4.260000e+09	-7.594845e-01	2.240733e-01
4.270000e+09	-7.585166e-01	2.248448e-01
4.280000e+09	-7.588093e-01	2.250204e-01
4.290000e+09	-7.585940e-01	2.254299e-01
4.300000e+09	-7.592130e-01	2.273658e-01
4.310000e+09	-7.580581e-01	2.279163e-01
4.320000e+09	-7.586162e-01	2.281486e-01
4.330000e+09	-7.585135e-01	2.288189e-01
4.340000e+09	-7.574328e-01	2.297618e-01
4.350000e+09	-7.579146e-01	2.307585e-01
4.360000e+09	-7.567774e-01	2.313711e-01
4.370000e+09	-7.561638e-01	2.312089e-01
4.380000e+09	-7.551164e-01	2.329080e-01
4.390000e+09	-7.544393e-01	2.328454e-01
4.400000e+09	-7.533439e-01	2.325841e-01
4.410000e+09	-7.537407e-01	2.330830e-01
4.420000e+09	-7.522087e-01	2.334952e-01
4.430000e+09	-7.520726e-01	2.342073e-01
4.440000e+09	-7.506999e-01	2.353198e-01
4.450000e+09	-7.493586e-01	2.334368e-01
4.460000e+09	-7.502421e-01	2.324545e-01
4.470000e+09	-7.499711e-01	2.327922e-01
4.480000e+09	-7.496608e-01	2.330059e-01
4.490000e+09	-7.495162e-01	2.312988e-01
4.500000e+09	-7.513581e-01	2.319372e-01
4.510000e+09	-7.518253e-01	2.325138e-01
4.520000e+09	-7.517601e-01	2.327352e-01
4.530000e+09	-7.516488e-01	2.335875e-01
4.540000e+09	-7.523121e-01	2.340884e-01
4.550000e+09	-7.526602e-01	2.362107e-01
4.560000e+09	-7.524871e-01	2.365627e-01
4.570000e+09	-7.522962e-01	2.378890e-01
4.580000e+09	-7.517280e-01	2.381032e-01
4.590000e+09	-7.513673e-01	2.381210e-01
4.600000e+09	-7.535366e-01	2.395799e-01
4.610000e+09	-7.515725e-01	2.412267e-01
4.620000e+09	-7.499069e-01	2.417628e-01
4.630000e+09	-7.494469e-01	2.416705e-01
4.640000e+09	-7.504253e-01	2.421669e-01
4.650000e+09	-7.501836e-01	2.443017e-01
4.660000e+09	-7.491070e-01	2.438311e-01
4.670000e+09	-7.493006e-01	2.439017e-01
4.680000e+09	-7.495529e-01	2.444845e-01
4.690000e+09	-7.481936e-01	2.459879e-01
4.700000e+09	-7.467323e-01	2.465685e-01
4.710000e+09	-7.463639e-01	2.464838e-01
4.720000e+09	-7.487063e-01	2.452072e-01
4.730000e+09	-7.483202e-01	2.469411e-01
4.740000e+09	-7.474361e-01	2.488762e-01
4.750000e+09	-7.467837e-01	2.484249e-01
4.760000e+09	-7.459483e-01	2.491979e-01
4.770000e+09	-7.460123e-01	2.499633e-01
4.780000e+09	-7.465430e-01	2.502578e-01
4.790000e+09	-7.474120e-01	2.511991e-01
4.800000e+09	-7.480682e-01	2.517089e-01
4.810000e+09	-7.469873e-01	2.529850e-01
4.820000e+09	-7.475869e-01	2.523184e-01
4.830000e+09	-7.479074e-01	2.537859e-01
4.840000e+09	-7.481631e-01	2.557504e-01
4.850000e+09	-7.478915e-01	2.577525e-01
4.860000e+09	-7.476526e-01	2.595986e-01
4.870000e+09	-7.463221e-01	2.609567e-01
4.880000e+09	-7.457310e-01	2.623015e-01
4.890000e+09	-7.449496e-01	2.619040e-01
4.900000e+09	-7.449022e-01	2.633732e-01
4.910000e+09	-7.444914e-01	2.647089e-01
4.920000e+09	-7.426379e-01	2.648467e-01
4.930000e+09	-7.427990e-01	2.639302e-01
4.940000e+09	-7.430083e-01	2.667755e-01
4.950000e+09	-7.408544e-01	2.672086e-01
4.960000e+09	-7.401453e-01	2.674395e-01
4.970000e+09	-7.401845e-01	2.688937e-01
4.980000e+09	-7.405052e-01	2.694579e-01
4.990000e+09	-7.389248e-01	2.694168e-01
