<Qucs Dataset 1.0.6>
<indep frequency 50>
  +1.00000000000000000000e+08
  +2.00000000000000000000e+08
  +3.00000000000000000000e+08
  +4.00000000000000000000e+08
  +5.00000000000000000000e+08
  +6.00000000000000000000e+08
  +7.00000000000000000000e+08
  +8.00000000000000000000e+08
  +9.00000000000000000000e+08
  +1.00000000000000000000e+09
  +1.10000000000000000000e+09
  +1.20000000000000000000e+09
  +1.30000000000000000000e+09
  +1.40000000000000000000e+09
  +1.50000000000000000000e+09
  +1.60000000000000000000e+09
  +1.70000000000000000000e+09
  +1.80000000000000000000e+09
  +1.90000000000000000000e+09
  +2.00000000000000000000e+09
  +2.10000000000000000000e+09
  +2.20000000000000000000e+09
  +2.30000000000000000000e+09
  +2.40000000000000000000e+09
  +2.50000000000000000000e+09
  +2.60000000000000000000e+09
  +2.70000000000000000000e+09
  +2.80000000000000000000e+09
  +2.90000000000000000000e+09
  +3.00000000000000000000e+09
  +3.10000000000000000000e+09
  +3.20000000000000000000e+09
  +3.30000000000000000000e+09
  +3.40000000000000000000e+09
  +3.50000000000000000000e+09
  +3.60000000000000000000e+09
  +3.70000000000000000000e+09
  +3.80000000000000000000e+09
  +3.90000000000000000000e+09
  +4.00000000000000000000e+09
  +4.10000000000000000000e+09
  +4.20000000000000000000e+09
  +4.30000000000000000000e+09
  +4.40000000000000000000e+09
  +4.50000000000000000000e+09
  +4.60000000000000000000e+09
  +4.70000000000000000000e+09
  +4.80000000000000000000e+09
  +4.90000000000000000000e+09
  +5.00000000000000000000e+09
</indep>
<dep dBS11 frequency>
  -1.20411998265592483648e+01
  -1.20411998265592483648e+01
  -1.20411998265592483648e+01
  -1.20411998265592483648e+01
  -1.20411998265592483648e+01
  -1.20411998265592483648e+01
  -1.20411998265592483648e+01
  -1.20411998265592483648e+01
  -1.20411998265592483648e+01
  -1.20411998265592483648e+01
  -1.20411998265592483648e+01
  -1.20411998265592483648e+01
  -1.20411998265592483648e+01
  -1.20411998265592483648e+01
  -1.20411998265592483648e+01
  -1.20411998265592483648e+01
  -1.20411998265592483648e+01
  -1.20411998265592483648e+01
  -1.20411998265592483648e+01
  -1.20411998265592483648e+01
  -1.20411998265592483648e+01
  -1.20411998265592483648e+01
  -1.20411998265592483648e+01
  -1.20411998265592483648e+01
  -1.20411998265592483648e+01
  -1.20411998265592483648e+01
  -1.20411998265592483648e+01
  -1.20411998265592483648e+01
  -1.20411998265592483648e+01
  -1.20411998265592483648e+01
  -1.20411998265592483648e+01
  -1.20411998265592483648e+01
  -1.20411998265592483648e+01
  -1.20411998265592483648e+01
  -1.20411998265592483648e+01
  -1.20411998265592483648e+01
  -1.20411998265592483648e+01
  -1.20411998265592483648e+01
  -1.20411998265592483648e+01
  -1.20411998265592483648e+01
  -1.20411998265592483648e+01
  -1.20411998265592483648e+01
  -1.20411998265592483648e+01
  -1.20411998265592483648e+01
  -1.20411998265592483648e+01
  -1.20411998265592483648e+01
  -1.20411998265592483648e+01
  -1.20411998265592483648e+01
  -1.20411998265592483648e+01
  -1.20411998265592483648e+01
</dep>
<dep dBS33 frequency>
  -3.03618612072004268043e+01
  -3.02967933011517374098e+01
  -3.01904410617121889970e+01
  -3.00457385785853858806e+01
  -2.98664195717683789155e+01
  -2.96567252702083195004e+01
  -2.94211185228770730760e+01
  -2.91640363274396463567e+01
  -2.88896987754392142733e+01
  -2.86019790421760013999e+01
  -2.83043293151318593459e+01
  -2.79997521922281293882e+01
  -2.76908054115903681236e+01
  -2.73796285497740541359e+01
  -2.70679823375063648427e+01
  -2.67572936052131282736e+01
  -2.64487010632755392692e+01
  -2.61430989103626068015e+01
  -2.58411765972204996444e+01
  -2.55434539985601638534e+01
  -2.52503118444302643297e+01
  -2.49620176204201094095e+01
  -2.46787473371847099202e+01
  -2.44006036516875468578e+01
  -2.41276308370225720523e+01
  -2.38598270734870112619e+01
  -2.35971544896492417820e+01
  -2.33395473303593590231e+01
  -2.30869185760382755745e+01
  -2.28391652880431728079e+01
  -2.25961729103314681311e+01
  -2.23578187187038395223e+01
  -2.21239745755730545795e+01
  -2.18945091200812882448e+01
  -2.16692894999083378593e+01
  -2.14481827316595001776e+01
  -2.12310567606961484444e+01
  -2.10177812781243709139e+01
  -2.08082283419031455196e+01
  -2.06022728402567132377e+01
  -2.03997928284227043605e+01
  -2.02006697639444254833e+01
  -2.00047886609763700960e+01
  -1.98120381802178116004e+01
  -1.96223106679536449803e+01
  -1.94355021551309761207e+01
  -1.92515123253247431023e+01
  -1.90702444587570170142e+01
  -1.88916053581593352817e+01
  -1.87155052611487349168e+01
</dep>
<dep dBS43 frequency>
  -2.66887973728783645111e-01
  -2.66977644876954689490e-01
  -2.67127134644585706447e-01
  -2.67336499840937935613e-01
  -2.67605820055537846347e-01
  -2.67935197714799122615e-01
  -2.68324758154939613242e-01
  -2.68774649711272572983e-01
  -2.69285043823967895626e-01
  -2.69856135160381149785e-01
  -2.70488141754187061405e-01
  -2.71181305161288022099e-01
  -2.71935890632882371065e-01
  -2.72752187305746129908e-01
  -2.73630508410005413023e-01
  -2.74571191494614841311e-01
  -2.75574598670815351653e-01
  -2.76641116873837189516e-01
  -2.77771158143139074159e-01
  -2.78965159921555294620e-01
  -2.80223585373619243910e-01
  -2.81546923723483888402e-01
  -2.82935690612839740865e-01
  -2.84390428479186829769e-01
  -2.85911706954978139805e-01
  -2.87500123288026709911e-01
  -2.89156302783715346560e-01
  -2.90880899269553405695e-01
  -2.92674595582539054384e-01
  -2.94538104080010576524e-01
  -2.96472167174515632837e-01
  -2.98477557893381484355e-01
  -3.00555080463645818423e-01
  -3.02705570923045952370e-01
  -3.04929897757816259496e-01
  -3.07228962568067365257e-01
  -3.09603700761548250586e-01
  -3.12055082276662898444e-01
  -3.14584112335611676414e-01
  -3.17191832228620906875e-01
  -3.19879320130176891812e-01
  -3.22647691948370118897e-01
  -3.25498102208327200202e-01
  -3.28431744970943628736e-01
  -3.31449854787973452463e-01
  -3.34553707694818014406e-01
  -3.37744622242160896786e-01
  -3.41023960567881367911e-01
  -3.44393129510631612611e-01
  -3.47853581766410346887e-01
</dep>
<dep dBS21 frequency>
  -9.15149811213502140106e-01
  -9.15149811213502140106e-01
  -9.15149811213502140106e-01
  -9.15149811213502140106e-01
  -9.15149811213502140106e-01
  -9.15149811213502140106e-01
  -9.15149811213502140106e-01
  -9.15149811213502140106e-01
  -9.15149811213502140106e-01
  -9.15149811213502140106e-01
  -9.15149811213502140106e-01
  -9.15149811213502140106e-01
  -9.15149811213502140106e-01
  -9.15149811213502140106e-01
  -9.15149811213502140106e-01
  -9.15149811213502140106e-01
  -9.15149811213502140106e-01
  -9.15149811213502140106e-01
  -9.15149811213502140106e-01
  -9.15149811213502140106e-01
  -9.15149811213502140106e-01
  -9.15149811213502140106e-01
  -9.15149811213502140106e-01
  -9.15149811213502140106e-01
  -9.15149811213502140106e-01
  -9.15149811213502140106e-01
  -9.15149811213502140106e-01
  -9.15149811213502140106e-01
  -9.15149811213502140106e-01
  -9.15149811213502140106e-01
  -9.15149811213502140106e-01
  -9.15149811213502140106e-01
  -9.15149811213502140106e-01
  -9.15149811213502140106e-01
  -9.15149811213502140106e-01
  -9.15149811213502140106e-01
  -9.15149811213502140106e-01
  -9.15149811213502140106e-01
  -9.15149811213502140106e-01
  -9.15149811213502140106e-01
  -9.15149811213502140106e-01
  -9.15149811213502140106e-01
  -9.15149811213502140106e-01
  -9.15149811213502140106e-01
  -9.15149811213502140106e-01
  -9.15149811213502140106e-01
  -9.15149811213502140106e-01
  -9.15149811213502140106e-01
  -9.15149811213502140106e-01
  -9.15149811213502140106e-01
</dep>
<dep S[1,1] frequency>
  -2.50000000000000000000e-01
  -2.50000000000000000000e-01
  -2.50000000000000000000e-01
  -2.50000000000000000000e-01
  -2.50000000000000000000e-01
  -2.50000000000000000000e-01
  -2.50000000000000000000e-01
  -2.50000000000000000000e-01
  -2.50000000000000000000e-01
  -2.50000000000000000000e-01
  -2.50000000000000000000e-01
  -2.50000000000000000000e-01
  -2.50000000000000000000e-01
  -2.50000000000000000000e-01
  -2.50000000000000000000e-01
  -2.50000000000000000000e-01
  -2.50000000000000000000e-01
  -2.50000000000000000000e-01
  -2.50000000000000000000e-01
  -2.50000000000000000000e-01
  -2.50000000000000000000e-01
  -2.50000000000000000000e-01
  -2.50000000000000000000e-01
  -2.50000000000000000000e-01
  -2.50000000000000000000e-01
  -2.50000000000000000000e-01
  -2.50000000000000000000e-01
  -2.50000000000000000000e-01
  -2.50000000000000000000e-01
  -2.50000000000000000000e-01
  -2.50000000000000000000e-01
  -2.50000000000000000000e-01
  -2.50000000000000000000e-01
  -2.50000000000000000000e-01
  -2.50000000000000000000e-01
  -2.50000000000000000000e-01
  -2.50000000000000000000e-01
  -2.50000000000000000000e-01
  -2.50000000000000000000e-01
  -2.50000000000000000000e-01
  -2.50000000000000000000e-01
  -2.50000000000000000000e-01
  -2.50000000000000000000e-01
  -2.50000000000000000000e-01
  -2.50000000000000000000e-01
  -2.50000000000000000000e-01
  -2.50000000000000000000e-01
  -2.50000000000000000000e-01
  -2.50000000000000000000e-01
  -2.50000000000000000000e-01
</dep>
<dep S[1,2] frequency>
  +0.00000000000000000000e+00
  +0.00000000000000000000e+00
  +0.00000000000000000000e+00
  +0.00000000000000000000e+00
  +0.00000000000000000000e+00
  +0.00000000000000000000e+00
  +0.00000000000000000000e+00
  +0.00000000000000000000e+00
  +0.00000000000000000000e+00
  +0.00000000000000000000e+00
  +0.00000000000000000000e+00
  +0.00000000000000000000e+00
  +0.00000000000000000000e+00
  +0.00000000000000000000e+00
  +0.00000000000000000000e+00
  +0.00000000000000000000e+00
  +0.00000000000000000000e+00
  +0.00000000000000000000e+00
  +0.00000000000000000000e+00
  +0.00000000000000000000e+00
  +0.00000000000000000000e+00
  +0.00000000000000000000e+00
  +0.00000000000000000000e+00
  +0.00000000000000000000e+00
  +0.00000000000000000000e+00
  +0.00000000000000000000e+00
  +0.00000000000000000000e+00
  +0.00000000000000000000e+00
  +0.00000000000000000000e+00
  +0.00000000000000000000e+00
  +0.00000000000000000000e+00
  +0.00000000000000000000e+00
  +0.00000000000000000000e+00
  +0.00000000000000000000e+00
  +0.00000000000000000000e+00
  +0.00000000000000000000e+00
  +0.00000000000000000000e+00
  +0.00000000000000000000e+00
  +0.00000000000000000000e+00
  +0.00000000000000000000e+00
  +0.00000000000000000000e+00
  +0.00000000000000000000e+00
  +0.00000000000000000000e+00
  +0.00000000000000000000e+00
  +0.00000000000000000000e+00
  +0.00000000000000000000e+00
  +0.00000000000000000000e+00
  +0.00000000000000000000e+00
  +0.00000000000000000000e+00
  +0.00000000000000000000e+00
</dep>
<dep S[2,1] frequency>
  +9.00000000000000022204e-01
  +9.00000000000000022204e-01
  +9.00000000000000022204e-01
  +9.00000000000000022204e-01
  +9.00000000000000022204e-01
  +9.00000000000000022204e-01
  +9.00000000000000022204e-01
  +9.00000000000000022204e-01
  +9.00000000000000022204e-01
  +9.00000000000000022204e-01
  +9.00000000000000022204e-01
  +9.00000000000000022204e-01
  +9.00000000000000022204e-01
  +9.00000000000000022204e-01
  +9.00000000000000022204e-01
  +9.00000000000000022204e-01
  +9.00000000000000022204e-01
  +9.00000000000000022204e-01
  +9.00000000000000022204e-01
  +9.00000000000000022204e-01
  +9.00000000000000022204e-01
  +9.00000000000000022204e-01
  +9.00000000000000022204e-01
  +9.00000000000000022204e-01
  +9.00000000000000022204e-01
  +9.00000000000000022204e-01
  +9.00000000000000022204e-01
  +9.00000000000000022204e-01
  +9.00000000000000022204e-01
  +9.00000000000000022204e-01
  +9.00000000000000022204e-01
  +9.00000000000000022204e-01
  +9.00000000000000022204e-01
  +9.00000000000000022204e-01
  +9.00000000000000022204e-01
  +9.00000000000000022204e-01
  +9.00000000000000022204e-01
  +9.00000000000000022204e-01
  +9.00000000000000022204e-01
  +9.00000000000000022204e-01
  +9.00000000000000022204e-01
  +9.00000000000000022204e-01
  +9.00000000000000022204e-01
  +9.00000000000000022204e-01
  +9.00000000000000022204e-01
  +9.00000000000000022204e-01
  +9.00000000000000022204e-01
  +9.00000000000000022204e-01
  +9.00000000000000022204e-01
  +9.00000000000000022204e-01
</dep>
<dep S[2,2] frequency>
  -2.50000000000000000000e-01
  -2.50000000000000000000e-01
  -2.50000000000000000000e-01
  -2.50000000000000000000e-01
  -2.50000000000000000000e-01
  -2.50000000000000000000e-01
  -2.50000000000000000000e-01
  -2.50000000000000000000e-01
  -2.50000000000000000000e-01
  -2.50000000000000000000e-01
  -2.50000000000000000000e-01
  -2.50000000000000000000e-01
  -2.50000000000000000000e-01
  -2.50000000000000000000e-01
  -2.50000000000000000000e-01
  -2.50000000000000000000e-01
  -2.50000000000000000000e-01
  -2.50000000000000000000e-01
  -2.50000000000000000000e-01
  -2.50000000000000000000e-01
  -2.50000000000000000000e-01
  -2.50000000000000000000e-01
  -2.50000000000000000000e-01
  -2.50000000000000000000e-01
  -2.50000000000000000000e-01
  -2.50000000000000000000e-01
  -2.50000000000000000000e-01
  -2.50000000000000000000e-01
  -2.50000000000000000000e-01
  -2.50000000000000000000e-01
  -2.50000000000000000000e-01
  -2.50000000000000000000e-01
  -2.50000000000000000000e-01
  -2.50000000000000000000e-01
  -2.50000000000000000000e-01
  -2.50000000000000000000e-01
  -2.50000000000000000000e-01
  -2.50000000000000000000e-01
  -2.50000000000000000000e-01
  -2.50000000000000000000e-01
  -2.50000000000000000000e-01
  -2.50000000000000000000e-01
  -2.50000000000000000000e-01
  -2.50000000000000000000e-01
  -2.50000000000000000000e-01
  -2.50000000000000000000e-01
  -2.50000000000000000000e-01
  -2.50000000000000000000e-01
  -2.50000000000000000000e-01
  -2.50000000000000000000e-01
</dep>
<dep S[4,4] frequency>
  +3.02615625905695052877e-02+j2.07196024736313417700e-03
  +3.02782151604855213900e-02+j4.14407152805806172635e-03
  +3.03059759976603837472e-02+j6.21648488426437047932e-03
  +3.03448549371306171285e-02+j8.28935137582510229992e-03
  +3.03948657560777490971e-02+j1.03628220889978184954e-02
  +3.04560261819680662410e-02+j1.24370481451086065811e-02
  +3.05283579030254485775e-02+j1.45121807090764533277e-02
  +3.06118865810511703307e-02+j1.65883709977747463571e-02
  +3.07066418665973006608e-02+j1.86657702881966001962e-02
  +3.08126574165037483977e-02+j2.07445299253899116676e-02
  +3.09299709138177170153e-02+j2.28248013301276392317e-02
  +3.10586240901060128827e-02+j2.49067360062781989472e-02
  +3.11986627501796495721e-02+j2.69904855478397300017e-02
  +3.13501367992500418191e-02+j2.90762016456015612298e-02
  +3.15131002725368841721e-02+j3.11640360933952420552e-02
  +3.16876113673506820678e-02+j3.32541407938957839230e-02
  +3.18737324776749084143e-02+j3.53466677639339352246e-02
  +3.20715302312744032776e-02+j3.74417691392773116510e-02
  +3.22810755293578346969e-02+j3.95395971788387035062e-02
  +3.25024435888256121863e-02+j4.16403042682672447361e-02
  +3.27357139871346097815e-02+j4.37440429228762930891e-02
  +3.29809707098151425053e-02+j4.58509657898618569472e-02
  +3.32383022006745021404e-02+j4.79612256497617128748e-02
  +3.35078014147281375013e-02+j5.00749754171043656714e-02
  +3.37895658738960394385e-02+j5.21923681401954830950e-02
  +3.40836977255077194782e-02+j5.43135569999855377654e-02
  +3.43903038036604269401e-02+j5.64386953079618683415e-02
  +3.47094956934760473510e-02+j5.85679365030061654940e-02
  +3.50413897983058372776e-02+j6.07014341471520113558e-02
  +3.53861074099332817422e-02+j6.28393419201806607832e-02
  +3.57437747818263595878e-02+j6.49818136129840934201e-02
  +3.61145232054966708324e-02+j6.71290031196255937429e-02
  +3.64984890900183836515e-02+j6.92810644280235643500e-02
  +3.68958140447702559461e-02+j7.14381516091778245858e-02
  +3.73066449654579496142e-02+j7.36004188048613311457e-02
  +3.77311341234810512790e-02+j7.57680202136873648389e-02
  +3.81694392587118291882e-02+j7.79411100754661273493e-02
  +3.86217236757511600542e-02+j8.01198426537546859461e-02
  +3.90881563437314519249e-02+j8.23043722165029828508e-02
  +3.95689119997393104478e-02+j8.44948530146932413887e-02
  +4.00641712559316048869e-02+j8.66914392588646748328e-02
  +4.05741207104201931366e-02+j8.88942850934086870041e-02
  +4.10989530620051030096e-02+j9.11035445685192957210e-02
  +4.16388672288353009487e-02+j9.33193716096711728403e-02
  +4.21940684710788299627e-02+j9.55419199844955574497e-02
  +4.27647685176895386849e-02+j9.77713432669184839829e-02
  +4.33511856973544662530e-02+j1.00007794798415330928e-01
  +4.39535450737101596186e-02+j1.02251427646233322699e-01
  +4.45720785849213485541e-02+j1.04502394558420738657e-01
  +4.52070251877103312932e-02+j1.06760847915500542427e-01
</dep>
<dep S[4,3] frequency>
  +9.69738437360942784338e-01-j2.07196024747402464047e-03
  +9.69721784791026442107e-01-j4.14407152827982964288e-03
  +9.69694023953850181563e-01-j6.21648488459704707393e-03
  +9.69655145014378216928e-01-j8.28935137626871272609e-03
  +9.69605134195428708388e-01-j1.03628220895524026518e-02
  +9.69543973769535938345e-01-j1.24370481457742130399e-02
  +9.69471642048475690245e-01-j1.45121807098531237223e-02
  +9.69388113370446280470e-01-j1.65883709986625431376e-02
  +9.69293358084895806392e-01-j1.86657702891956170377e-02
  +9.69187342534985396547e-01-j2.07445299265001832645e-02
  +9.69070029037666147431e-01-j2.28248013313492800758e-02
  +9.68941375861372189426e-01-j2.49067360076113269995e-02
  +9.68801337201292356305e-01-j2.69904855492844458764e-02
  +9.68649863152215462314e-01-j2.90762016471579828880e-02
  +9.68486899678921542289e-01-j3.11640360950634701109e-02
  +9.68312388584100292022e-01-j3.32541407956759918485e-02
  +9.68126267473768176153e-01-j3.53466677658262271033e-02
  +9.67928469720159889711e-01-j3.74417691412817568719e-02
  +9.67718924422067527935e-01-j3.95395971809556837084e-02
  +9.67497556362590271917e-01-j4.16403042704967737975e-02
  +9.67264285964270831286e-01-j4.37440429252185444819e-02
  +9.67019029241579897160e-01-j4.58509657923170804716e-02
  +9.66761697750709414478e-01-j4.79612256523300334310e-02
  +9.66492198536644475659e-01-j5.00749754197861787763e-02
  +9.66210434077464430658e-01-j5.21923681429908165041e-02
  +9.65916302225839684681e-01-j5.43135570028945163790e-02
  +9.65609696147674001487e-01-j5.64386953109849986987e-02
  +9.65290504257844461655e-01-j5.85679365061435447393e-02
  +9.64958610153000440057e-01-j6.07014341504039933728e-02
  +9.64613892541358097787e-01-j6.28393419235473843498e-02
  +9.64256225169449421308e-01-j6.49818136164658083365e-02
  +9.63885476745763192241e-01-j6.71290031232228412428e-02
  +9.63501510861224708115e-01-j6.92810644317363305555e-02
  +9.63104185906455412258e-01-j7.14381516130066646086e-02
  +9.62693354985750149311e-01-j7.36004188088061617190e-02
  +9.62268865827708541616e-01-j7.57680202177488798521e-02
  +9.61830560692458536032e-01-j7.79411100796445072136e-02
  +9.61378276275399401563e-01-j8.01198426580503331174e-02
  +9.60911843607399118738e-01-j8.23043722209161610071e-02
  +9.60431087951370221489e-01-j8.44948530192243946191e-02
  +9.59935828695156478929e-01-j8.66914392635139835486e-02
  +9.59425879240645151924e-01-j8.88942850981767757057e-02
  +9.58901046889037433907e-01-j9.11035445734065252310e-02
  +9.58361132722183595156e-01-j9.33193716146777652032e-02
  +9.57805931479916328186e-01-j9.55419199896221787993e-02
  +9.57235231433280486790e-01-j9.77713432721653702417e-02
  +9.56648814253589607759e-01-j1.00007794803782801285e-01
  +9.56046454877207962930e-01-j1.02251427651722043288e-01
  +9.55427921365969323730e-01-j1.04502394564030959279e-01
  +9.54792974763152724194e-01-j1.06760847921232859825e-01
</dep>
<dep S[3,4] frequency>
  +9.69738437360942784338e-01-j2.07196024747402464047e-03
  +9.69721784791026442107e-01-j4.14407152827982964288e-03
  +9.69694023953850181563e-01-j6.21648488459704707393e-03
  +9.69655145014378216928e-01-j8.28935137626871272609e-03
  +9.69605134195428708388e-01-j1.03628220895524026518e-02
