<Qucs Dataset 1.0.6>
<indep frequency 161>
  +6.00000000000000000000e+09
  +6.05000000000000000000e+09
  +6.10000000000000000000e+09
  +6.15000000000000000000e+09
  +6.20000000000000000000e+09
  +6.25000000000000000000e+09
  +6.30000000000000000000e+09
  +6.35000000000000000000e+09
  +6.40000000000000000000e+09
  +6.45000000000000000000e+09
  +6.50000000000000000000e+09
  +6.55000000000000000000e+09
  +6.60000000000000000000e+09
  +6.65000000000000000000e+09
  +6.70000000000000000000e+09
  +6.75000000000000000000e+09
  +6.80000000000000000000e+09
  +6.85000000000000000000e+09
  +6.90000000000000000000e+09
  +6.95000000000000000000e+09
  +7.00000000000000000000e+09
  +7.05000000000000000000e+09
  +7.10000000000000000000e+09
  +7.15000000000000000000e+09
  +7.20000000000000000000e+09
  +7.25000000000000000000e+09
  +7.30000000000000000000e+09
  +7.35000000000000000000e+09
  +7.40000000000000000000e+09
  +7.45000000000000000000e+09
  +7.50000000000000000000e+09
  +7.55000000000000000000e+09
  +7.60000000000000000000e+09
  +7.65000000000000000000e+09
  +7.70000000000000000000e+09
  +7.75000000000000000000e+09
  +7.80000000000000000000e+09
  +7.85000000000000000000e+09
  +7.90000000000000000000e+09
  +7.95000000000000000000e+09
  +8.00000000000000000000e+09
  +8.05000000000000000000e+09
  +8.10000000000000000000e+09
  +8.15000000000000000000e+09
  +8.20000000000000000000e+09
  +8.25000000000000000000e+09
  +8.30000000000000000000e+09
  +8.35000000000000000000e+09
  +8.40000000000000000000e+09
  +8.45000000000000000000e+09
  +8.50000000000000000000e+09
  +8.55000000000000000000e+09
  +8.60000000000000000000e+09
  +8.65000000000000000000e+09
  +8.70000000000000000000e+09
  +8.75000000000000000000e+09
  +8.80000000000000000000e+09
  +8.85000000000000000000e+09
  +8.90000000000000000000e+09
  +8.95000000000000000000e+09
  +9.00000000000000000000e+09
  +9.05000000000000000000e+09
  +9.10000000000000000000e+09
  +9.15000000000000000000e+09
  +9.20000000000000000000e+09
  +9.25000000000000000000e+09
  +9.30000000000000000000e+09
  +9.35000000000000000000e+09
  +9.40000000000000000000e+09
  +9.45000000000000000000e+09
  +9.50000000000000000000e+09
  +9.55000000000000000000e+09
  +9.60000000000000000000e+09
  +9.65000000000000000000e+09
  +9.70000000000000000000e+09
  +9.75000000000000000000e+09
  +9.80000000000000000000e+09
  +9.85000000000000000000e+09
  +9.90000000000000000000e+09
  +9.95000000000000000000e+09
  +1.00000000000000000000e+10
  +1.00500000000000000000e+10
  +1.01000000000000000000e+10
  +1.01500000000000000000e+10
  +1.02000000000000000000e+10
  +1.02500000000000000000e+10
  +1.03000000000000000000e+10
  +1.03500000000000000000e+10
  +1.04000000000000000000e+10
  +1.04500000000000000000e+10
  +1.05000000000000000000e+10
  +1.05500000000000000000e+10
  +1.06000000000000000000e+10
  +1.06500000000000000000e+10
  +1.07000000000000000000e+10
  +1.07500000000000000000e+10
  +1.08000000000000000000e+10
  +1.08500000000000000000e+10
  +1.09000000000000000000e+10
  +1.09500000000000000000e+10
  +1.10000000000000000000e+10
  +1.10500000000000000000e+10
  +1.11000000000000000000e+10
  +1.11500000000000000000e+10
  +1.12000000000000000000e+10
  +1.12500000000000000000e+10
  +1.13000000000000000000e+10
  +1.13500000000000000000e+10
  +1.14000000000000000000e+10
  +1.14500000000000000000e+10
  +1.15000000000000000000e+10
  +1.15500000000000000000e+10
  +1.16000000000000000000e+10
  +1.16500000000000000000e+10
  +1.17000000000000000000e+10
  +1.17500000000000000000e+10
  +1.18000000000000000000e+10
  +1.18500000000000000000e+10
  +1.19000000000000000000e+10
  +1.19500000000000000000e+10
  +1.20000000000000000000e+10
  +1.20500000000000000000e+10
  +1.21000000000000000000e+10
  +1.21500000000000000000e+10
  +1.22000000000000000000e+10
  +1.22500000000000000000e+10
  +1.23000000000000000000e+10
  +1.23500000000000000000e+10
  +1.24000000000000000000e+10
  +1.24500000000000000000e+10
  +1.25000000000000000000e+10
  +1.25500000000000000000e+10
  +1.26000000000000000000e+10
  +1.26500000000000000000e+10
  +1.27000000000000000000e+10
  +1.27500000000000000000e+10
  +1.28000000000000000000e+10
  +1.28500000000000000000e+10
  +1.29000000000000000000e+10
  +1.29500000000000000000e+10
  +1.30000000000000000000e+10
  +1.30500000000000000000e+10
  +1.31000000000000000000e+10
  +1.31500000000000000000e+10
  +1.32000000000000000000e+10
  +1.32500000000000000000e+10
  +1.33000000000000000000e+10
  +1.33500000000000000000e+10
  +1.34000000000000000000e+10
  +1.34500000000000000000e+10
  +1.35000000000000000000e+10
  +1.35500000000000000000e+10
  +1.36000000000000000000e+10
  +1.36500000000000000000e+10
  +1.37000000000000000000e+10
  +1.37500000000000000000e+10
  +1.38000000000000000000e+10
  +1.38500000000000000000e+10
  +1.39000000000000000000e+10
  +1.39500000000000000000e+10
  +1.40000000000000000000e+10
</indep>
<dep dBS11 frequency>
  -9.02457305147718491511e-01
  -8.99366491573472703891e-01
  -8.96107308720361706023e-01
  -8.91997862294094723268e-01
  -8.87719276668916923434e-01
  -8.84119907388866144160e-01
  -8.80350211240986779693e-01
  -8.76543557848081689166e-01
  -8.72564594448228758594e-01
  -8.69013481133975029813e-01
  -8.65301808743766276422e-01
  -8.63388171725495978670e-01
  -8.61314172881838313600e-01
  -8.58074771441718509024e-01
  -8.54685338472828681766e-01
  -8.51796743995737015709e-01
  -8.48757955734960045646e-01
  -8.45485888538516472401e-01
  -8.42064888694348145926e-01
  -8.38884782494199843228e-01
  -8.35557323271355456562e-01
  -8.32591155957166373369e-01
  -8.29472760164999267651e-01
  -8.26440574946397554790e-01
  -8.23260312740920152663e-01
  -8.20299125616405389039e-01
  -8.17187535400607623082e-01
  -8.14920096195325793786e-01
  -8.12506866643289749064e-01
  -8.09282052928038675432e-01
  -8.05918205249631536269e-01
  -8.02889284008256653991e-01
  -7.99724836984512021942e-01
  -7.96523463499308914670e-01
  -7.93185750579295412166e-01
  -7.90309397270448354966e-01
  -7.87303374735916605687e-01
  -7.83211982130491590759e-01
  -7.78990184691462195232e-01
  -7.74430877019973151754e-01
  -7.69736092316245401612e-01
  -7.67924203588069675952e-01
  -7.65969100256075341449e-01
  -7.62228143541174407716e-01
  -7.58358692071786189004e-01
  -7.55881122216921719215e-01
  -7.53268119624489473907e-01
  -7.50940615769761121712e-01
  -7.48479587655842437677e-01
  -7.45427476415663758935e-01
  -7.42249748886391058633e-01
  -7.39358640795627519715e-01
  -7.36334819009695440428e-01
  -7.32595464294540699157e-01
  -7.28728783325441997754e-01
  -7.25122125615156210010e-01
  -7.21383709792794314275e-01
  -7.18135454111083149087e-01
  -7.14746817404157019915e-01
  -7.12279957964210064247e-01
  -7.09677472761671923607e-01
  -7.06971568744534817341e-01
  -7.04133849417707513574e-01
  -7.01630912564368935946e-01
  -6.98994994230714761230e-01
  -6.95592885730873078387e-01
  -6.92058476466848260245e-01
  -6.89695618816805078310e-01
  -6.87200935714524563380e-01
  -6.85639168253014408272e-01
  -6.83943457543997768155e-01
  -6.81626248049754912550e-01
  -6.79194657706761462101e-01
  -6.76778914297435085778e-01
  -6.74222942900885136019e-01
  -6.70732704302350324355e-01
  -6.67115442298472638427e-01
  -6.64474406392792538156e-01
  -6.61690833002318790079e-01
  -6.59129768540378746522e-01
  -6.56431664100739498124e-01
  -6.54638636506334914422e-01
  -6.52708871388593236951e-01
  -6.51044538661801119872e-01
  -6.49244775586072520035e-01
  -6.47291624948485466717e-01
  -6.45204583451126079119e-01
  -6.42960488372310789984e-01
  -6.40581768653662009250e-01
  -6.38303161908440275241e-01
  -6.35895574263365515044e-01
  -6.33140639065371324534e-01
  -6.30254402657487444728e-01
  -6.27520236581378787477e-01
  -6.24655831535851802094e-01
  -6.21859247348080179663e-01
  -6.18926599485297823655e-01
  -6.16258117821105955159e-01
  -6.13436441337632754056e-01
  -6.13041576388459352742e-01
  -6.12510877569101719331e-01
  -6.10710285399749919222e-01
  -6.08777667494449614694e-01
  -6.06993783201843939423e-01
  -6.05081666558618835872e-01
  -6.01940060993490844155e-01
  -5.98664432343453456475e-01
  -5.98919113758507704048e-01
  -5.99005110837835141879e-01
  -5.97946990200481032218e-01
  -5.96768461019059781592e-01
  -5.94737525761946494995e-01
  -5.92559366866314829458e-01
  -5.90239668598161237867e-01
  -5.87773215715223895650e-01
  -5.86015817458859444855e-01
  -5.84112748761536737518e-01
  -5.83825534424684988721e-01
  -5.83390610490908567698e-01
  -5.83171660918369472171e-01
  -5.82815535217868663231e-01
  -5.81669622128072050238e-01
  -5.80393557345737276520e-01
  -5.78565864415853781111e-01
  -5.76602183135726309438e-01
  -5.74807950839380965569e-01
  -5.72874179271049110973e-01
  -5.70933903671049125528e-01
  -5.68859295057664526851e-01
  -5.67126545584596741811e-01
  -5.65258168860473642070e-01
  -5.63659873374571129823e-01
  -5.61919657292867635867e-01
  -5.61367932422694893013e-01
  -5.60661247330990319959e-01
  -5.59667857493278186887e-01
  -5.58521118400700178341e-01
  -5.57841457718799227372e-01
  -5.57009681814885193596e-01
  -5.56300663472217737926e-01
  -5.55442505531078323244e-01
  -5.55226731663436501307e-01
  -5.54871404685278735158e-01
  -5.54610674306936557443e-01
  -5.54205455853996387106e-01
  -5.54027679777025827690e-01
  -5.53711536204283927276e-01
  -5.52526672111433914125e-01
  -5.51201227890664613440e-01
  -5.49842280060621968474e-01
  -5.48344204031016468903e-01
  -5.46698479861054464912e-01
  -5.44915672779146653681e-01
  -5.44004338694610400928e-01
  -5.42959031780454459692e-01
  -5.43035981132752421097e-01
  -5.42977324968698327190e-01
  -5.42216716502944118261e-01
  -5.41320654139667456484e-01
  -5.40522832689590781996e-01
  -5.39582484583633892328e-01
</dep>
<dep dBS21 frequency>
  +8.53363949042935487910e+00
  +8.44426463899899815146e+00
  +8.35458218311287836855e+00
  +8.26518884637847150998e+00
  +8.17544116677522225700e+00
  +8.08500980154503956499e+00
  +7.99421299559432263493e+00
  +7.91166173915532144889e+00
  +7.82881761407201182124e+00
  +7.73731122240926794120e+00
  +7.64538450185534923520e+00
  +7.56488534650422739247e+00
  +7.48420944885258343504e+00
  +7.40025668019661964081e+00
  +7.31590883563343119533e+00
  +7.23439050969364672028e+00
  +7.15271128713442561065e+00
  +7.07331382506965944401e+00
  +6.99367228558596210064e+00
  +6.91357585446511002658e+00
  +6.83327439375456169302e+00
  +6.75648642054511583410e+00
  +6.67958222933637912888e+00
  +6.59737759837601611679e+00
  +6.51488532417283749965e+00
  +6.43464780422121229719e+00
  +6.35419362389534114754e+00
  +6.27845585883530254989e+00
  +6.20256358981218092197e+00
  +6.12410967656015614580e+00
  +6.04540465222363465614e+00
  +5.96792515731748629548e+00
  +5.89026576839603421831e+00
  +5.81794400607713946272e+00
  +5.74547747275572717740e+00
  +5.66674746916914173767e+00
  +5.58776114848547056368e+00
  +5.51327472074541624636e+00
  +5.43863430891156429681e+00
  +5.36476985112179338699e+00
  +5.29070051798828355771e+00
  +5.21983983253434047356e+00
  +5.14891367262079402423e+00
  +5.07700255041964432223e+00
  +5.00490864872512819517e+00
  +4.93017727619735079969e+00
  +4.85529153331540808125e+00
  +4.78455718811460251061e+00
  +4.71371399748564723353e+00
  +4.64016395680436843918e+00
  +4.56640844993931160900e+00
  +4.49683722480032521673e+00
  +4.42714828651727110298e+00
  +4.35611050558201728933e+00
  +4.28490709036633354856e+00
  +4.21729211786061242151e+00
  +4.14955812358796283235e+00
  +4.08079017121528497825e+00
  +4.01191196016062701091e+00
  +3.94352111857953957497e+00
  +3.87499214552685522506e+00
  +3.80574489526244352788e+00
  +3.73634905334313982550e+00
  +3.67061169572304102360e+00
  +3.60484351415002057806e+00
  +3.53831137386332583716e+00
  +3.47163338547772593046e+00
  +3.40491266085071453418e+00
  +3.33812800140862053766e+00
  +3.27380217473291601493e+00
  +3.20936765770047260915e+00
  +3.14153359395052778069e+00
  +3.07362911621811507601e+00
  +3.00790834810550800071e+00
  +2.94200744057005092458e+00
  +2.88031745120957971551e+00
  +2.81857744842468616042e+00
  +2.75475989784335872912e+00
  +2.69090376126313302052e+00
  +2.62579229980910389131e+00
  +2.56057142124317760334e+00
  +2.49716070649436394646e+00
  +2.43369130960990531776e+00
  +2.37039010220399104512e+00
  +2.30697965338612487329e+00
  +2.24448761419855857824e+00
  +2.18191880907066870776e+00
  +2.11856114601592215863e+00
  +2.05511132735209978151e+00
  +1.99454676927308360845e+00
  +1.93393148495844746648e+00
  +1.87070608687729511566e+00
  +1.80735102697990557274e+00
  +1.74606480781158057702e+00
  +1.68473266520022835202e+00
  +1.62419397532215481483e+00
  +1.56354464270406778859e+00
  +1.50390940940107165069e+00
  +1.44424406268733784842e+00
  +1.38420021684931171535e+00
  +1.32406552324472515103e+00
  +1.26108231846447615965e+00
  +1.19799439217822789594e+00
  +1.14130962211734310330e+00
  +1.08456224285120250705e+00
  +1.02484303101838558625e+00
  +9.64984249649778913493e-01
  +9.16123857771194760602e-01
  +8.67405782013797921337e-01
  +8.02438322279718896368e-01
  +7.37292770235247196808e-01
  +6.81332661285853680155e-01
  +6.25333940945372646070e-01
  +5.70525520162648236422e-01
  +5.15697063534143795849e-01
  +4.57888685089045344156e-01
  +4.00027761892241873198e-01
  +3.45384529115279115263e-01
  +2.90698876751001478169e-01
  +2.34374083275448952257e-01
  +1.78051504268740334869e-01
  +1.23637468859874560811e-01
  +6.91691823970525948573e-02
  +1.04473682058882876011e-02
  -4.83323144298492546334e-02
  -1.01109011103700865974e-01
  -1.53898546602009134165e-01
  -2.12163427018191241835e-01
  -2.70537886383384162947e-01
  -3.24345394434244926885e-01
  -3.78166351116433374635e-01
  -4.32215495146083927835e-01
  -4.86345947795370214806e-01
  -5.38830950795708196743e-01
  -5.91293584426836549284e-01
  -6.43757196697935851759e-01
  -6.96269437193337448200e-01
  -7.50865694540342021313e-01
  -8.05474976997910929732e-01
  -8.58229017240187297411e-01
  -9.11033902202817102989e-01
  -9.63499171431883016936e-01
  -1.01598917847420455729e+00
  -1.06859970614452715054e+00
  -1.12123913340695890994e+00
  -1.17299694683695410191e+00
  -1.22476914805152414800e+00
  -1.27592426460584507097e+00
  -1.32709282489784174963e+00
  -1.38311840163319321739e+00
  -1.43922876361289064917e+00
  -1.49176137055842339407e+00
  -1.54436028509001577191e+00
  -1.59612530001503549748e+00
  -1.64796311600007294729e+00
  -1.69647220117508990000e+00
  -1.74497454328292800341e+00
  -1.79561017741515049906e+00
  -1.84628460882177658497e+00
  -1.89544219294351323768e+00
  -1.94457764596066384755e+00
</dep>
<dep dBS12 frequency>
  -3.54784474216565612892e+01
  -3.54753668069953604913e+01
  -3.54716976517468580710e+01
  -3.54613835157772783191e+01
  -3.54504817883662610711e+01
  -3.54547923298701519457e+01
  -3.54587237060847257908e+01
  -3.54505987702390470417e+01
  -3.54418485140369057262e+01
  -3.54351476803457359210e+01
  -3.54276273464917750289e+01
  -3.54200448840107924298e+01
  -3.54120107911656702981e+01
  -3.53971243177297907323e+01
  -3.53815591303979886106e+01
  -3.53731005188315634769e+01
  -3.53640179765566600167e+01
  -3.53417552075093155395e+01
  -3.53187693796369686083e+01
  -3.52891456082073631251e+01
  -3.52588338684312745386e+01
  -3.52210475892047014668e+01
  -3.51828996694173028459e+01
  -3.51506968475712540112e+01
  -3.51180667557541354995e+01
  -3.50778309833601014134e+01
  -3.50373094546188141862e+01
  -3.50068239236615710297e+01
  -3.49758775119637377315e+01
  -3.49354047450397047214e+01
  -3.48945364636599535402e+01
  -3.48555139599445524823e+01
  -3.48160722645048821278e+01
  -3.47607855705479735775e+01
  -3.47053535941157846878e+01
  -3.46578922235832322940e+01
  -3.46102302275245463647e+01
  -3.45544910102129136931e+01
  -3.44987123363742682614e+01
  -3.44396130518011673871e+01
  -3.43804997742452229659e+01
  -3.43261833131134608266e+01
  -3.42719399095074948036e+01
  -3.42078461761292942356e+01
  -3.41437043236926669465e+01
  -3.40870425030864652172e+01
  -3.40305146238463080977e+01
  -3.39672492486003179124e+01
  -3.39041597971723120963e+01
  -3.38319834592375485727e+01
  -3.37600872962485141215e+01
  -3.36898039549710333063e+01
  -3.36199928482298133758e+01
  -3.35541122434043472822e+01
  -3.34885444096331426067e+01
  -3.34189746715409086164e+01
  -3.33498107794660754166e+01
  -3.32780870929332763808e+01
  -3.32068553043181040607e+01
  -3.31369828473324616880e+01
  -3.30676360107250033593e+01
  -3.30007044909889017958e+01
  -3.29342118179278173784e+01
  -3.28741196435417606381e+01
  -3.28143818505530688867e+01
  -3.27411364441675232229e+01
  -3.26684589222694299337e+01
  -3.26125967319152891832e+01
  -3.25570519556834270247e+01
  -3.24933001324336103721e+01
  -3.24299746524867202879e+01
  -3.23748889159280466288e+01
  -3.23200222009702216042e+01
  -3.22212721084651221304e+01
  -3.21235555861881891815e+01
  -3.20272267071173359909e+01
  -3.19319013351787361898e+01
  -3.18902665552186768139e+01
  -3.18487682432982737168e+01
  -3.18004107041196846239e+01
  -3.17523068732824143012e+01
  -3.16958218316059401332e+01
  -3.16397009219087443910e+01
  -3.15851223008374049073e+01
  -3.15308837035391853476e+01
  -3.14723015928832907662e+01
  -3.14141114382971800012e+01
  -3.13553180424629474032e+01
  -3.12969198804696375760e+01
  -3.12523469582986734849e+01
  -3.12080014578993392149e+01
  -3.11489231056914697149e+01
  -3.10902393342995928549e+01
  -3.10295990268140400303e+01
  -3.09693781890243435839e+01
  -3.09091898294307618755e+01
  -3.08494136812189942987e+01
  -3.07949915996178376076e+01
  -3.07409040167776304031e+01
  -3.06802783181682627855e+01
  -3.06200450482851884715e+01
  -3.05767845225805459108e+01
  -3.05337371312460774675e+01
  -3.04842374859315690117e+01
  -3.04350110219136453793e+01
  -3.03770477290605533938e+01
  -3.03194661232384206073e+01
  -3.02645566299759707363e+01
  -3.02099532322477344337e+01
  -3.01664102106304419237e+01
  -3.01230842031615644316e+01
  -3.00720594447678415406e+01
  -3.00213219327276092940e+01
  -2.99727948841169933303e+01
  -2.99245276165975617744e+01
  -2.98762304102677376250e+01
  -2.98281997568974404089e+01
  -2.97777255780267360308e+01
  -2.97275377638404911806e+01
  -2.96648083380967335643e+01
  -2.96025279622275618863e+01
  -2.95301694609276168535e+01
  -2.94583694497008217184e+01
  -2.93990689539615175363e+01
  -2.93400731188201113753e+01
  -2.92909105207588424946e+01
  -2.92419124290000844724e+01
  -2.91923418055885228739e+01
  -2.91429815062379518054e+01
  -2.90964614914909986965e+01
  -2.90500698152359788651e+01
  -2.90079954337686771737e+01
  -2.89660338783913573479e+01
  -2.89265248964173622426e+01
  -2.88870734744410526673e+01
  -2.88497956012108112134e+01
  -2.88126072747360737480e+01
  -2.87840777386760002798e+01
  -2.87555458095897797932e+01
  -2.87254827477114531575e+01
  -2.86954701646743970400e+01
  -2.86619901788597957193e+01
  -2.86286237187217835753e+01
  -2.85855788440246136872e+01
  -2.85427270873374823168e+01
  -2.84927888799131245889e+01
  -2.84430734561542486460e+01
  -2.84000411914480288544e+01
  -2.83571343306027969788e+01
  -2.83171949578551682691e+01
  -2.82773761969187198417e+01
  -2.82351469080481400908e+01
  -2.81930017656158256045e+01
  -2.81557314301700891690e+01
  -2.81184681401001412837e+01
  -2.80911907956645201523e+01
  -2.80638145282149125137e+01
  -2.80416340183432986066e+01
  -2.80194101501727956816e+01
  -2.79965213140297279892e+01
  -2.79735736756808961445e+01
</dep>
<dep S[1,1] frequency>
  -8.92888784409999969327e-01+j1.22964844109999971167e-01
  -8.92654210329999919793e-01+j1.26954928040000081246e-01
  -8.92419636249999870259e-01+j1.30945011969999969281e-01
  -8.92251312734999801890e-01+j1.34971037504999946677e-01
  -8.92082989219999955566e-01+j1.38997063040000035095e-01
  -8.91825050119999906961e-01+j1.43025077880000073272e-01
  -8.91567111019999858357e-01+j1.47053092720000000426e-01
  -8.91290128235000089774e-01+j1.51110671460000012267e-01
