# HZ S RI R 50
1.00000000000000000000e+08 +4.22919573248549535149e-02 +2.20184020249231462985e-03 +9.57448567079557499859e-01 -3.35029221104846466894e-03 +9.57448567079557499859e-01 -3.35029221104846466894e-03 +4.23195188059547269810e-02 +2.29385578584643916311e-03
2.00000000000000000000e+08 +4.22995267258663015797e-02 +4.45288112450056491887e-03 +9.57417910118391057850e-01 -6.65530316538444008390e-03 +9.57417910118391057850e-01 -6.65530316538444008390e-03 +4.23472362670830604348e-02 +4.62896345198423458944e-03
3.00000000000000000000e+08 +4.23212003165329420096e-02 +6.69363075214538839897e-03 +9.57375125082154276868e-01 -9.96944550326481562785e-03 +9.57375125082154276868e-01 -9.96944550326481562785e-03 +4.24010499295428763822e-02 +6.95513482273918751120e-03
4.00000000000000000000e+08 +4.23528004855758255509e-02 +8.93141966241675112903e-03 +9.57316383075557775229e-01 -1.32858416427334164595e-02 +9.57316383075557775229e-01 -1.32858416427334164595e-02 +4.24774418759967312131e-02 +9.27839767507014634429e-03
5.00000000000000000000e+08 +4.23937768982707713361e-02 +1.11678547935955985865e-02 +9.57241183309455068162e-01 -1.66028637998705680401e-02 +9.57241183309455068162e-01 -1.66028637998705680401e-02 +4.25759443478720966958e-02 +1.15999646966192145048e-02
6.00000000000000000000e+08 +4.24439903132719509316e-02 +1.34034551341294209947e-02 +9.57149403190339809200e-01 -1.99198821055632940835e-02 +9.57149403190339809200e-01 -1.99198821055632940835e-02 +4.26964340635340861008e-02 +1.39201333718581635179e-02
7.00000000000000000000e+08 +4.25033913554621750608e-02 +1.56384173660288373908e-02 +9.57041003687724711746e-01 -2.32365623604713980588e-02 +9.57041003687724711746e-01 -2.32365623604713980588e-02 +4.28388619798639180836e-02 +1.62389301102751695827e-02
8.00000000000000000000e+08 +4.25719579028661990194e-02 +1.78728153599765210435e-02 +9.56915971904426565509e-01 -2.65526830659514531674e-02 +9.56915971904426565509e-01 -2.65526830659514531674e-02 +4.30032006185744469784e-02 +1.85562780902805354866e-02
9.00000000000000000000e+08 +4.26496778752874228235e-02 +2.01066679366427962516e-02 +9.56774305289605719871e-01 -2.98680732823176017798e-02 +9.56774305289605719871e-01 -2.98680732823176017798e-02 +4.31894295878541556455e-02 +2.08720542792491664530e-02
1.00000000000000000000e+09 +4.27365433592374055483e-02 +2.23399662561553219442e-02 +9.56616006249466965805e-01 -3.31825875164929659511e-02 +9.56616006249466965805e-01 -3.31825875164929659511e-02 +4.33975306410719213757e-02 +2.31861124898763912294e-02
1.10000000000000000000e+09 +4.28325482752489813953e-02 +2.45726863497479700027e-02 +9.56441080006977362160e-01 -3.64960942373733013278e-02 +9.56441080006977362160e-01 -3.64960942373733013278e-02 +4.36274857157513129557e-02 +2.54982939370605801721e-02
1.20000000000000000000e+09 +4.29376873415925758293e-02 +2.68047954138551439152e-02 +9.56249533650569971677e-01 -3.98084701123212272855e-02 +9.56249533650569971677e-01 -3.98084701123212272855e-02 +4.38792760633351305866e-02 +2.78084325472926566225e-02
1.30000000000000000000e+09 +4.30519555720268176646e-02 +2.90362552106719976064e-02 +9.56041375672587734336e-01 -4.31195968976270591067e-02 +9.56041375672587734336e-01 -4.31195968976270591067e-02 +4.41528818283809382228e-02 +3.01163578337788756523e-02
1.40000000000000000000e+09 +4.31753480148341500788e-02 +3.12670240167188598357e-02 +9.55816615728947494013e-01 -4.64293596607440461899e-02 +9.55816615728947494013e-01 -4.64293596607440461899e-02 +4.44482818309059474204e-02 +3.24218965500195077656e-02
1.50000000000000000000e+09 +4.33078596092876383361e-02 +3.34970577949429831888e-02 +9.55575264506429600253e-01 -4.97376457146931141851e-02 +9.55575264506429600253e-01 -4.97376457146931141851e-02 +4.47654534476860793690e-02 +3.47248736901480323236e-02
1.60000000000000000000e+09 +4.34494851028899217726e-02 +3.57263109291737768203e-02 +9.55317333645624433558e-01 -5.30443439538707817160e-02 +9.55317333645624433558e-01 -5.30443439538707817160e-02 +4.51043725448436669256e-02 +3.70251131210651285297e-02
1.70000000000000000000e+09 +4.36002190017217225448e-02 +3.79547367007315311627e-02 +9.55042835694161151849e-01 -5.63493444263459819510e-02 +9.55042835694161151849e-01 -5.63493444263459819510e-02 +4.54650134384511628305e-02 +3.93224379976265803194e-02
1.80000000000000000000e+09 +4.37600555396412821407e-02 +4.01822876072647147683e-02 +9.54751784077143006435e-01 -5.96525380508549571412e-02 +9.54751784077143006435e-01 -5.96525380508549571412e-02 +4.58473488711557339292e-02 +4.16166710450723217884e-02
1.90000000000000000000e+09 +4.39289886586346073338e-02 +4.24089155818397831044e-02 +9.54444193077727875973e-01 -6.29538164252736870408e-02 +9.54444193077727875973e-01 -6.29538164252736870408e-02 +4.62513499983458614695e-02 +4.39076347575097641895e-02
2.00000000000000000000e+09 +4.41070119959828116363e-02 +4.46345721471404985325e-02 +9.54120077823872314582e-01 -6.62530716945957803832e-02 +9.54120077823872314582e-01 -6.62530716945957803832e-02 +4.66769863802144122089e-02 +4.61951515417730121382e-02
2.10000000000000000000e+09 +4.42941188757246251395e-02 +4.68592085263761642944e-02 +9.53779454278936955625e-01 -6.95501964586040938299e-02 +9.53779454278936955625e-01 -6.95501964586040938299e-02 +4.71242259775953784007e-02 +4.84790438248269214827e-02
2.20000000000000000000e+09 +4.44903023028962868457e-02 +4.90827757246551227288e-02 +9.53422339234750504389e-01 -7.28450837066177830925e-02 +9.53422339234750504389e-01 -7.28450837066177830925e-02 +4.75930351502975995670e-02 +5.07591341362872219833e-02
2.30000000000000000000e+09 +4.46955549596119161571e-02 +5.13052245898016207049e-02 +9.53048750306279668365e-01 -7.61376267710794363275e-02 +9.53048750306279668365e-01 -7.61376267710794363275e-02 +4.80833786571464444348e-02 +5.30352451736075050648e-02
2.40000000000000000000e+09 +4.49098692023908035997e-02 +5.35265058586045644473e-02 +9.52658705927360460741e-01 -7.94277192944883997372e-02 +9.52658705927360460741e-01 -7.94277192944883997372e-02 +4.85952196572336375668e-02 +5.53071998549693744085e-02
2.50000000000000000000e+09 +4.51332370603473309600e-02 +5.57465701925729667510e-02 +9.52252225347132386091e-01 -8.27152552059428752829e-02 +9.52252225347132386091e-01 -8.27152552059428752829e-02 +4.91285197120516631264e-02 +5.75748213633016370228e-02
2.60000000000000000000e+09 +4.53656502339879960650e-02 +5.79653682060196212555e-02 +9.51829328626951243209e-01 -8.60001287047010565256e-02 +9.51829328626951243209e-01 -8.60001287047010565256e-02 +4.96832387882968906645e-02 +5.98379331838004083211e-02
2.70000000000000000000e+09 +4.56071000944468299410e-02 +6.01828504884601156455e-02 +9.51390036637616787196e-01 -8.92822342489391768128e-02 +9.51390036637616787196e-01 -8.92822342489391768128e-02 +5.02593352611991200929e-02 +6.20963591366199274546e-02
2.80000000000000000000e+09 +4.58575776830385320459e-02 +6.23989676227459655333e-02 +9.50934371056809002454e-01 -9.25614665484031096110e-02 +9.50934371056809002454e-01 -9.25614665484031096110e-02 +5.08567659182755302250e-02 +6.43499234059256852714e-02
2.90000000000000000000e+09 +4.61170737110522671598e-02 +6.46136701999607404590e-02 +9.50462354366662598437e-01 -9.58377205600103726502e-02 +9.50462354366662598437e-01 -9.58377205600103726502e-02 +5.14754859634432224147e-02 +6.65984505661737086202e-02
3.00000000000000000000e+09 +4.63855785597240555251e-02 +6.68269088318326764941e-02 +9.49974009851421108408e-01 -9.91108914857097289541e-02 +9.49974009851421108408e-01 -9.91108914857097289541e-02 +5.21154490214379845225e-02 +6.88417656062476485124e-02
3.10000000000000000000e+09 +4.66630822803509454078e-02 +6.90386341612236470455e-02 +9.49469361595139060839e-01 -1.02380874772084309865e-01 +9.49469361595139060839e-01 -1.02380874772084309865e-01 +5.27766071425072175183e-02 +7.10796939519237197525e-02
3.20000000000000000000e+09 +4.69495745945135087296e-02 +7.12487968711144753486e-02 +9.48948434479399582919e-01 -1.05647566111312915527e-01 +9.48948434479399582919e-01 -1.05647566111312915527e-01 +5.34589108073484017836e-02 +7.33120614870130804519e-02
3.30000000000000000000e+09 +4.72450448943882092556e-02 +7.34573476924042928493e-02 +9.48411254181032004063e-01 -1.08910861443196477216e-01 +9.48411254181032004063e-01 -1.08910861443196477216e-01 +5.41623089322769632470e-02 +7.55386945734496662030e-02
3.40000000000000000000e+09 +4.75494822431307834210e-02 +7.56642374107672349703e-02 +9.47857847169812695043e-01 -1.12170656958026138117e-01 +9.47857847169812695043e-01 -1.12170656958026138117e-01 +5.48867488746065876337e-02 +7.77594200705237770244e-02
3.50000000000000000000e+09 +4.78628753753205793409e-02 +7.78694168727543933883e-02 +9.47288240706137263381e-01 -1.15426849100120368363e-01 +9.47288240706137263381e-01 -1.15426849100120368363e-01 +5.56321764382331704346e-02 +7.99740653534193185470e-02
3.60000000000000000000e+09 +4.81852126974567154805e-02 +8.00728369912863391367e-02 +9.46702462838660219191e-01 -1.18679334571895916950e-01 +9.46702462838660219191e-01 -1.18679334571895916950e-01 +5.63985358794137289773e-02 +8.21824583311747125514e-02
3.70000000000000000000e+09 +4.85164822884965873939e-02 +8.22744487506515131958e-02 +9.46100542401890454158e-01 -1.21928010338367559529e-01 +9.46100542401890454158e-01 -1.21928010338367559529e-01 +5.71857699127314711429e-02 +8.43844274641619152000e-02
3.80000000000000000000e+09 +4.88566719004371319279e-02 +8.44742032110995105798e-02 +9.45482509013743976922e-01 -1.25172773631992612087e-01 +9.45482509013743976922e-01 -1.25172773631992612087e-01 +5.79938197172465697005e-02 +8.65798017811581638314e-02
3.90000000000000000000e+09 +4.92057689589267543973e-02 +8.66720515131021856936e-02 +9.44848393073042136514e-01 -1.28413521957794013462e-01 +9.44848393073042136514e-01 -1.28413521957794013462e-01 +5.88226249428218106452e-02 +8.87684108960680867684e-02
4.00000000000000000000e+09 +4.95637605639129633084e-02 +8.88679448813393391138e-02 +9.44198225756963438471e-01 -1.31650153098708588839e-01 +9.44198225756963438471e-01 -1.31650153098708588839e-01 +5.96721237166261270213e-02 +9.09500850243439018517e-02
4.10000000000000000000e+09 +4.99306334903172610584e-02 +9.10618346284549351477e-02 +9.43532039018435408906e-01 -1.34882565121116987372e-01 +9.43532039018435408906e-01 -1.34882565121116987372e-01 +6.05422526498084478952e-02 +9.31246549991392030821e-02
4.20000000000000000000e+09 +5.03063741887384979767e-02 +9.32536721586218614322e-02 +9.42849865583474944231e-01 -1.38110656380521029662e-01 +9.42849865583474944231e-01 -1.38110656380521029662e-01 +6.14329468443413490020e-02 +9.52919522872277685588e-02
4.30000000000000000000e+09 +5.06909687861822194632e-02 +9.54434089709447902594e-02 +9.42151738948468597812e-01 -1.41334325527339238482e-01 +9.42151738948468597812e-01 -1.41334325527339238482e-01 +6.23441399000323887014e-02 +9.74518090047093721306e-02
4.40000000000000000000e+09 +5.10844030868141188440e-02 +9.76309966627267877826e-02 +9.41437693377397022410e-01 -1.44553471512797265808e-01 +9.41437693377397022410e-01 -1.44553471512797265808e-01 +6.32757639216995904086e-02 +9.96040579325231933971e-02
4.50000000000000000000e+09 +5.14866625727374155330e-02 +9.98163869326194191922e-02 +9.40707763898997351149e-01 -1.47767993594893815024e-01 +9.40707763898997351149e-01 -1.47767993594893815024e-01 +6.42277495265105580202e-02 +1.01748532531782925892e-01
4.60000000000000000000e+09 +5.18977324047947621843e-02 +1.01999531583673086477e-01 +9.39961986303871177562e-01 -1.50977791344425793518e-01 +9.39961986303871177562e-01 -1.50977791344425793518e-01 +6.52000258514848357594e-02 +1.03885066958947697158e-01
4.70000000000000000000e+09 +5.23175974233900248356e-02 +1.04180382526302461876e-01 +9.39200397141528586786e-01 -1.54182764651059428518e-01 +9.39200397141528586786e-01 -1.54182764651059428518e-01 +6.61925205611538364225e-02 +1.06013496080836988611e-01
4.80000000000000000000e+09 +5.27462421493330446687e-02 +1.06358891781177702929e-01 +9.38423033717373900053e-01 -1.57382813729435161454e-01 +9.38423033717373900053e-01 -1.57382813729435161454e-01 +6.72051598553807527647e-02 +1.08133655489498423097e-01
4.90000000000000000000e+09 +5.31836507847067846422e-02 +1.08535011482050927634e-01 +9.37629934089631578154e-01 -1.60577839125297966438e-01 +9.37629934089631578154e-01 -1.60577839125297966438e-01 +6.82378684773383842321e-02 +1.10245381516935844757e-01
5.00000000000000000000e+09 +5.36298072137540854376e-02 +1.10708693878527067445e-01 +9.36821137066213727174e-01 -1.63767741721643822483e-01 +9.36821137066213727174e-01 -1.63767741721643822483e-01 +6.92905697216414651063e-02 +1.12348511249700577785e-01
