# HZ S RI R 50
1.00000000000000000000e+07 +1.01639464496654730041e+00 -5.33393440640723137669e-02 -1.83476967781341171460e+00 -1.72584236361266629700e+00 -1.13667912252167109532e-02 +5.12505492748937304531e-03 +6.85393390098919308429e-01 +2.73237133831218059754e-01
2.00000000000000000000e+07 +1.01533351394903448295e+00 -4.25318111272481869101e-02 -1.72043699965762586501e+00 -1.31762890048991065939e+00 -6.13363505199765457476e-03 +7.30117603022905747173e-03 +9.39270825959635735636e-01 +1.02544546590156521182e-01
3.00000000000000000000e+07 +1.01960167466205042786e+00 -4.72550018260016746474e-02 -1.74210420606632632179e+00 -1.71456831295786393810e+00 -4.91329282387943915705e-03 +7.93593079077762469931e-03 +9.65120740193182058420e-01 +2.74836784542013060073e-02
4.00000000000000000000e+07 +1.02384748146236526090e+00 -5.48446548351417817457e-02 -1.83771697349557405765e+00 -2.18828419831094489467e+00 -4.09928853850268122561e-03 +8.60946536510608789738e-03 +9.72513191896665962766e-01 -1.91070672976118606512e-02
5.00000000000000000000e+07 +1.02839579813393533492e+00 -6.39529251671316634198e-02 -1.97806205158474557315e+00 -2.68314004024300345463e+00 -3.37523893547147374461e-03 +9.29894204123003602358e-03 +9.75022230273636436593e-01 -5.53978976455929347789e-02
6.00000000000000000000e+07 +1.03339361830355236371e+00 -7.42777990288437384159e-02 -2.15701727406211851701e+00 -3.18526981920936202997e+00 -2.67034842607174376442e-03 +9.99444660395802479680e-03 +9.75453754841365427986e-01 -8.69726539091569689210e-02
7.00000000000000000000e+07 +1.03890287814848081283e+00 -8.57537816178297607195e-02 -2.37355401327970350067e+00 -3.68901013475413908083e+00 -1.96035966798264885483e-03 +1.06922045065647990797e-02 +9.74682490426722947241e-01 -1.16141815081925919850e-01
8.00000000000000000000e+07 +1.04494668623438857757e+00 -9.83977579474749758370e-02 -2.62826266767247274103e+00 -4.19112036440600732590e+00 -1.23439316199624093615e-03 +1.13902663063434987645e-02 +9.73035481798861012770e-01 -1.44048971415622367731e-01
9.00000000000000000000e+07 +1.05152680943886145393e+00 -1.12264958723511484862e-01 -2.92242282027664268540e+00 -4.68917696567521513629e+00 -4.86432927062126685067e-04 +1.20871515863364697996e-02 +9.70637533143587249995e-01 -1.71333529575254162047e-01
1.00000000000000000000e+08 +1.05863039230137889746e+00 -1.27433224724300797615e-01 -3.25769095804616881651e+00 -5.18097607875677557132e+00 +2.87482763201030947636e-04 +1.27813788810284233166e-02 +9.67523043553793926641e-01 -1.98386532149321670460e-01
1.10000000000000000000e+08 +1.06623221312749016931e+00 -1.43996553322610326697e-01 -3.63597318164420624242e+00 -5.66425382441835623126e+00 +1.09035337730402272921e-03 +1.34712731023118002793e-02 +9.63678739119900651389e-01 -2.25464004387255390061e-01
1.20000000000000000000e+08 +1.07429479915336423268e+00 -1.62062185137302278148e-01 -4.05935987669995146376e+00 -6.13652387368463614337e+00 +1.92468850848867426354e-03 +1.41548658244861312594e-02 +9.59061877341395252472e-01 -2.52742278087467076020e-01
1.30000000000000000000e+08 +1.08276732842891898478e+00 -1.81749139545799964779e-01 -4.53008011560425227771e+00 -6.59496201613087862370e+00 +2.79272273529605633349e-03 +1.48298270235506356868e-02 +9.53608520515793034455e-01 -2.80346842629347003939e-01
1.40000000000000000000e+08 +1.09158371049170499489e+00 -2.03187301342327042430e-01 -5.05045829897964182464e+00 -7.03630957510728283211e+00 +3.69650875394916464400e-03 +1.54934062478033676008e-02 +9.47237375872826303791e-01 -3.08367952166327230490e-01
1.50000000000000000000e+08 +1.10066001608875141393e+00 -2.26516596111371038003e-01 -5.62286391537920415828e+00 -7.45678342118924586401e+00 +4.63794433706835040887e-03 +1.61423751213054834930e-02 +9.39851522855698173764e-01 -3.36869044192095679069e-01
1.60000000000000000000e+08 +1.10989133236266823701e+00 -2.51885956499597774005e-01 -6.24964818999552562673e+00 -7.85198729777234838423e+00 +5.61875680008169699903e-03 +1.67729686423617255220e-02 +9.31339118256335862789e-01 -3.65890933270308138514e-01
1.70000000000000000000e+08 +1.11914808614017347033e+00 -2.79451836949579091041e-01 -6.93306225238646245401e+00 -8.21682284650421657091e+00 +6.64045471363190059622e-03 +1.73808254401676583190e-02 +9.21573660582419851295e-01 -3.95453305850606728900e-01
1.80000000000000000000e+08 +1.12827187888451385689e+00 -3.09376040862146373112e-01 -7.67515152782963738787e+00 -8.54540121799133167713e+00 +7.70424997639691713086e-03 +1.79609289420012974148e-02 +9.10414180117696814065e-01 -4.25554332726965800493e-01
1.90000000000000000000e+08 +1.13707090409996469660e+00 -3.41822607207635020821e-01 -8.47762088810781833104e+00 -8.83095837378634129777e+00 +8.81095004239794594991e-03 +1.85075530449997707749e-02 +8.97705638316751319827e-01 -4.56168852944618341549e-01
2.00000000000000000000e+08 +1.14531507057906578595e+00 -3.76953477069297493429e-01 -9.34166501646565983208e+00 -9.06577956589369371443e+00 +9.96081850436959445605e-03 +1.90142177110159578401e-02 +8.83279802030653482525e-01 -4.87245399599334771956e-01
2.10000000000000000000e+08 +1.15273103530098497416e+00 -4.14922634909311471851e-01 -1.02677587332967821254e+01 -9.24114124598304975677e+00 +1.11534017937452243491e-02 +1.94736620598824454464e-02 +8.66956873752425805080e-01 -5.18702258122747617008e-01
2.20000000000000000000e+08 +1.15899746157175553840e+00 -4.55868406031257722422e-01 -1.12554030274244070142e+01 -9.34728190444135620396e+00 +1.23873203596038938129e-02 +1.98778450586050182969e-02 +8.48548191396279127829e-01 -5.50422737327468269974e-01
2.30000000000000000000e+08 +1.16374096362149437311e+00 -4.99903605435110143240e-01 -1.23028246408636476872e+01 -9.37341702690052791525e+00 +1.36600244692094592580e-02 +2.02179867113187507199e-02 +8.27860347005553109945e-01 -5.82249878489019989658e-01
2.40000000000000000000e+08 +1.16653337713977034440e+00 -5.47103293456665973338e-01 -1.34066307429616440317e+01 -9.30781725800213877164e+00 +1.49675180075946098052e-02 +2.04846655068391357568e-02 +8.04701098949135662508e-01 -6.13980923193614414046e-01
2.50000000000000000000e+08 +1.16689119755561221403e+00 -5.97490024389579099662e-01 -1.45614260113395008744e+01 -9.13797248845101961479e+00 +1.63040586670997883489e-02 +2.06679903201492445874e-02 +7.78887448530680703840e-01 -6.45362004166423530727e-01
2.60000000000000000000e+08 +1.16427823364599691836e+00 -6.51016703015283582090e-01 -1.57594077570999857585e+01 -8.85086708815737388534e+00 +1.76618499711268250874e-02 +2.07578662477630737637e-02 +7.50256196018645682422e-01 -6.76083709501200780245e-01
2.70000000000000000000e+08 +1.15811269538716654637e+00 -7.07547516500176110199e-01 -1.69899657913078847571e+01 -8.43339162420888399652e+00 +1.90307496993212879599e-02 +2.07443729093656076268e-02 +7.18677154360284786705e-01 -7.05778385648965445043e-01
2.80000000000000000000e+08 +1.14778001243987293201e+00 -7.66837900684416373664e-01 -1.82393271938774930163e+01 -7.87291243201300972032e+00 +2.03980300316902972424e-02 +2.06182691972306431083e-02 +6.84068951247446266350e-01 -7.34020259143846831584e-01
2.90000000000000000000e+08 +1.13265258186358241943e+00 -8.28515121352825123502e-01 -1.94903007989860768134e+01 -7.15801038989443849658e+00 +2.17482359091384601368e-02 +2.03716287869003878641e-02 +6.46416967415747278913e-01 -7.60329621864741622694e-01
3.00000000000000000000e+08 +1.11211727488702960542e+00 -8.92061750889243665341e-01 -2.07221895718585926716e+01 -6.27938237152416611764e+00 +2.30631974927960371746e-02 +1.99985946701905295542e-02 +6.05792435630651215916e-01 -7.84182367123060108938e-01
3.10000000000000000000e+08 +1.07882909712646135603e+00 -9.52056898727204226063e-01 -2.18267430969132298912e+01 -5.22060398156689497995e+00 +2.43032167928407642765e-02 +1.91393935816219114276e-02 +5.59763465499188539454e-01 -8.02157903981230768764e-01
3.20000000000000000000e+08 +1.03898512714238822063e+00 -1.01119193567432197334e+00 -2.28458017493718834601e+01 -4.00192427183070797980e+00 +2.54350062346361434351e-02 +1.81558469254727468389e-02 +5.11446800415406466200e-01 -8.16082511302785640339e-01
3.30000000000000000000e+08 +9.92493330331579159953e-01 -1.06842070161398527972e+00 -2.37517761366553976643e+01 -2.63112874728950840719e+00 +2.64344871698065780885e-02 +1.70602532524789449186e-02 +4.61385346910512639251e-01 -8.25467870857766516934e-01
3.40000000000000000000e+08 +9.39478087015096718915e-01 -1.12263718635153653125e+00 -2.45176390149034482135e+01 -1.12208102543672771922e+00 +2.72792116602211288934e-02 +1.58704074904418915293e-02 +4.10246246297893857324e-01 -8.29920044336553641706e-01
3.50000000000000000000e+08 +8.80303757739028358564e-01 -1.17273117517481106908e+00 -2.51185682045044629263e+01 +5.05213118176188413777e-01 +2.79498890687862946991e-02 +1.46093561323777151179e-02 +3.58799961277794066117e-01 -8.29175993862969806791e-01
3.60000000000000000000e+08 +8.15580798860193301181e-01 -1.21765291651549967256e+00 -2.55336511451297383246e+01 +2.22507261318443694265e+00 +2.84318713332372546843e-02 +1.33046516183772389752e-02 +3.07887015044028433675e-01 -8.23134225449915990502e-01
3.70000000000000000000e+08 +7.46150850168980417365e-01 -1.25648025544207353477e+00 -2.57474497959636039468e+01 +4.00716681902721205688e+00 +2.87164062156636118450e-02 +1.19871173482441525232e-02 +2.58374509875860025598e-01 -8.11874812985031057977e-01
3.80000000000000000000e+08 +6.73050112761341856604e-01 -1.28848021385742206313e+00 -2.57512152397012172855e+01 +5.81804026904957627409e+00 +2.88014754293346407488e-02 +1.06892174154707038369e-02 +2.11106582383772584111e-01 -7.95665049431110382727e-01
3.90000000000000000000e+08 +5.97453820344374220142e-01 -1.31315700249003364242e+00 -2.55435750055158976579e+01 +7.62298794405320379042e+00 +2.86920819457132346419e-02 +9.44320064752247022299e-03 +1.66854417439234015141e-01 -7.74948904876284760945e-01
4.00000000000000000000e+08 +5.20607855534108154849e-01 -1.33028012482099544656e+00 -2.51305900222427389679e+01 +9.38806604195743332752e+00 +2.83999311997664045937e-02 +8.27923621952288135706e-03 +1.26271882193862566846e-01 -7.50320976406951722915e-01
4.10000000000000000000e+08 +4.44022390180541293159e-01 -1.33059639303659649201e+00 -2.44671772733044505799e+01 +1.09555440078090402523e+01 +2.77411619021343570923e-02 +7.09110383141683519453e-03 +9.18932191429412265071e-02 -7.19131498186637130310e-01
4.20000000000000000000e+08 +3.69704860075233177064e-01 -1.32392840114326459933e+00 -2.36515022602360076576e+01 +1.24124910622249906567e+01 +2.69552159291585775869e-02 +6.06198765744201274047e-03 +6.22653430174971711519e-02 -6.85995070297660602954e-01
4.30000000000000000000e+08 +2.98553296236601595215e-01 -1.31098441264613141399e+00 -2.27078742255573438058e+01 +1.37425786298307155420e+01 +2.60714205185809226595e-02 +5.20257259115900014962e-03 +3.74145393002211848477e-02 -6.51714013200759612054e-01
4.40000000000000000000e+08 +2.31264135318259261842e-01 -1.29258440825097631333e+00 -2.16617302272047780320e+01 +1.49352773329123760249e+01 +2.51187676920474785291e-02 +4.51724907303096591404e-03 +1.72163415866632002471e-02 -6.17032776525187398597e-01
4.50000000000000000000e+08 +1.68328692165892274124e-01 -1.26960331860597963605e+00 -2.05382238308438296315e+01 +1.59854939893248300109e+01 +2.41245465543320908308e-02 +4.00485285893503392685e-03 +1.42438133971369181030e-03 -5.82610469236662598114e-01
4.60000000000000000000e+08 +1.10044640250300501672e-01 -1.24292104968402417065e+00 -1.93610980390822859931e+01 +1.68928966071719663944e+01 +2.31133503810545364032e-02 +3.65965451031888353711e-03 -1.02976408239255808053e-02 -5.49004497445808037348e-01
4.70000000000000000000e+08 +5.65380638174876534729e-02 -1.21338244767682357228e+00 -1.81518840578314453182e+01 +1.76610603707616924396e+01 +2.21064672640481074684e-02 +3.47245016689872766646e-03 -1.83445489815109094578e-02 -5.16664349602784511717e-01
4.80000000000000000000e+08 +7.79154857493727197315e-03 -1.18176834955967580143e+00 -1.69294179774842170616e+01 +1.82965541529745223670e+01 +2.11216152768366645376e-02 +3.43163187463654296983e-03 -2.31415085182100944972e-02 -4.85933615071007185549e-01
4.90000000000000000000e+08 -3.63256327236320328278e-02 -1.14877729329277578074e+00 -1.57096337959678535867e+01 +1.88080602874392361912e+01 +2.01729551940824786138e-02 +3.52415217324775426402e-03 -2.51206144268703510103e-02 -4.57057929600411971816e-01
5.00000000000000000000e+08 -7.60282373892702534324e-02 -1.11501644596433080459e+00 -1.45055739425438758872e+01 +1.92055892467480617825e+01 +1.92713039375365761952e-02 +3.73633429125533106027e-03 -2.47028292525945727953e-02 -4.30196590718561866495e-01
5.10000000000000000000e+08 -1.07739163077730321083e-01 -1.07795070652274338485e+00 -1.33876194292191463830e+01 +1.94372145438389658523e+01 +1.83646596389496694068e-02 +4.02585038799343781363e-03 -2.14131566410416425417e-02 -4.04978832910850683469e-01
5.20000000000000000000e+08 -1.35726554723860526330e-01 -1.04140420201501626707e+00 -1.23071556942213451435e+01 +1.95856385206100291896e+01 +1.75285996346009748104e-02 +4.40449411926103085585e-03 -1.66436896240682516424e-02 -3.81889170276535849791e-01
5.30000000000000000000e+08 -1.60344307010058306773e-01 -1.00565921975541661126e+00 -1.12683036251743686762e+01 +1.96609241050058329847e+01 +1.67648675073742911557e-02 +4.85947854105050688900e-03 -1.07043370353782970467e-02 -3.60883523884389434411e-01
5.40000000000000000000e+08 -1.81937492161280328640e-01 -9.70929111927806731686e-01 -1.02736464445829138725e+01 +1.96724669002798933093e+01 +1.60736241283481427755e-02 +5.37924516368329906635e-03 -3.86593156543892438326e-03 -3.41889513318798632380e-01
5.50000000000000000000e+08 -2.00834830222265947608e-01 -9.37368907451325061864e-01 -9.32452617363144931062e+00 +1.96288923011054343704e+01 +1.54538204255037902451e-02 +5.95349483316780832970e-03 +3.63797602170983641612e-03 -3.24815303032566393693e-01
5.60000000000000000000e+08 -2.17343923118131804317e-01 -9.05085262618596786410e-01 -8.42130616437207990543e+00 +1.95380121667235009397e+01 +1.49035133141612180507e-02 +6.57315988105809656528e-03 +1.16083455893190787278e-02 -3.09556736547267785653e-01
5.70000000000000000000e+08 -2.31748621357727196957e-01 -8.74145437176764072973e-01 -7.56359669579816884522e+00 +1.94068243231175721064e+01 +1.44201262767830115652e-02 +7.23033775088571112333e-03 +1.98773572474761558992e-02 -2.96002929110481094455e-01
5.80000000000000000000e+08 -2.44307974397993510340e-01 -8.44585158650458800444e-01 -6.75044415485582227632e+00 +1.92415412554773368470e+01 +1.40006592359218431931e-02 +7.91820169668785989181e-03 +2.83049318081763853772e-02 -2.84040531436566268120e-01
5.90000000000000000000e+08 -2.55256310437104005917e-01 -8.16415356479889164909e-01 -5.98048643594698514647e+00 +1.90476373467865194300e+01 +1.36418539162102645662e-02 +8.63090006493590945758e-03 +3.67752869455342593086e-02 -2.73556885587037723617e-01
6.00000000000000000000e+08 -2.64804084332700473414e-01 -7.89627821668085316809e-01 -5.25207828301261336890e+00 +1.88299066699420762916e+01 +1.33403213650519197192e-02 +9.36345228592157241554e-03 +4.51936723378621382774e-02 -2.64442282207752954459e-01
6.10000000000000000000e+08 -2.70617853986505563224e-01 -7.62693216392899109302e-01 -4.61337514954692728963e+00 +1.85793776124017639972e+01 +1.30587527245212171867e-02 +1.00865804466042131848e-02 +5.40687168926009403824e-02 -2.55902367208866443615e-01
6.20000000000000000000e+08 -2.75483413222881168281e-01 -7.37136091335624410448e-01 -4.01066032901124369658e+00 +1.83161339121294197696e+01 +1.28326554521590065205e-02 +1.08188718704548356847e-02 +6.27262919999095058810e-02 -2.48490014083134008738e-01
6.30000000000000000000e+08 -2.79541381172726977056e-01 -7.12901384892207445887e-01 -3.44188424234694156922e+00 +1.80428385063984038084e+01 +1.26584888753127951938e-02 +1.15574412090369699202e-02 +7.11239741186470569856e-02 -2.42112360320982572537e-01
6.40000000000000000000e+08 -2.82915179144807571454e-01 -6.89931254688146200493e-01 -2.90504060104872907644e+00 +1.77617683471698128983e+01 +1.25328824422829016721e-02 +1.22999078779405732198e-02 +7.92291119774754387661e-02 -2.36683298757561416670e-01
6.50000000000000000000e+08 -2.85712936328907873840e-01 -6.68166637335762869654e-01 -2.39818842384197283835e+00 +1.74748647828468008925e+01 +1.24526499320790490222e-02 +1.30443222486175507135e-02 +8.70171539999129717291e-02 -2.32123341524039406014e-01
6.60000000000000000000e+08 -2.88029245441395520544e-01 -6.47548428845360901640e-01 -1.91946680188124174649e+00 +1.71837784284421992709e+01 +1.24147956340683787019e-02 +1.37891013580128864863e-02 +9.44702288959807234825e-02 -2.28359368777415777663e-01
6.70000000000000000000e+08 -2.89946759178292934322e-01 -6.28018362113794026413e-01 -1.46710411080275138218e+00 +1.68899087885484355809e+01 +1.24165146840472112588e-02 +1.45329732749261333197e-02 +1.01575947730678836645e-01 -2.25324304036537748086e-01
6.80000000000000000000e+08 -2.91537627519349917815e-01 -6.09519644550740924416e-01 -1.03942302529983821024e+00 +1.65944390142847275627e+01 +1.24551892512260471008e-02 +1.52749292087449358574e-02 +1.08326397600671947563e-01 -2.22956747050087278339e-01
6.90000000000000000000e+08 -2.92864781813804375687e-01 -5.91997407338291536938e-01 -6.34842407744595549346e-01 +1.62983662321749100954e+01 +1.25283818746061460792e-02 +1.60141824551777757490e-02 +1.14717299635259464829e-01 -2.21200586662530673809e-01
7.00000000000000000000e+08 -2.93983075090216539049e-01 -5.75399007990763933229e-01 -2.51876909885399513644e-01 +1.60025278993477719780e+01 +1.26338269321170093562e-02 +1.67501333218019292370e-02 +1.20747306966191916833e-01 -2.20004609654441934952e-01
7.10000000000000000000e+08 -2.92770590756506132735e-01 -5.59346691375624316400e-01 +7.62004321273794804625e-02 +1.57167698317119892693e+01 +1.27534538399273634363e-02 +1.74449225775386053405e-02 +1.26976094152208285326e-01 -2.19195298737106913922e-01
7.20000000000000000000e+08 -2.91486988024015958310e-01 -5.44101671617231552602e-01 +3.86975238515479103008e-01 +1.54332070447743650021e+01 +1.29024567676054077031e-02 +1.81319900434183563231e-02 +1.32843507067890165274e-01 -2.18822140271504039788e-01
7.30000000000000000000e+08 -2.90163001646576990122e-01 -5.29616664646890278334e-01 +6.81556436238701324193e-01 +1.51521880252929719290e+01 +1.30790051265468991459e-02 +1.88112353056181132172e-02 +1.38355645125389031813e-01 -2.18848231768247747375e-01
7.40000000000000000000e+08 -2.88825218161612051748e-01 -5.15847271782113980798e-01 +9.60974373804000414623e-01 +1.48739935691546314445e+01 +1.32814116253167410070e-02 +1.94826373752238490855e-02 +1.43519401536919777307e-01 -2.19239966090936461152e-01
7.50000000000000000000e+08 -2.87496620617780085372e-01 -5.02751861886560069692e-01 +1.22618600402328614685e+00 +1.45988470306133848453e+01 +1.35081206186795314134e-02 +2.01462407201434164083e-02 +1.48342244257769345639e-01 -2.19966728976395381467e-01
7.60000000000000000000e+08 -2.86197061684262621384e-01 -4.90291441507006209299e-01 +1.47807993707504570224e+00 +1.43269230821403024123e+01 +1.37576971756425171789e-02 +2.08021435476536710463e-02 +1.52832038131191449981e-01 -2.21000622575634464440e-01
7.70000000000000000000e+08 -2.84943674422925674605e-01 -4.78429518541391651798e-01 +1.71748130101725982044e+00 +1.40583551986206192197e+01 +1.40288168882922083952e-02 +2.14504879855016115930e-02 +1.56996901106961378458e-01 -2.22316213637861970209e-01
7.80000000000000000000e+08 -2.83751228862120064012e-01 -4.67131963559606511183e-01 +1.94515636960557225521e+00 +1.37932420497138696902e+01 +1.43202564187631092157e-02 +2.20914518645566743116e-02 +1.60845088619017029252e-01 -2.23890304749051111122e-01
7.90000000000000000000e+08 -2.82632441549246438139e-01 -4.56366871826681397284e-01 +2.16181693360383730962e+00 +1.35316529589717493565e+01 +1.46308847652106277515e-02 +2.27252418487053978180e-02 +1.64384901166727104282e-01 -2.25701726943321995256e-01
