<Qucs Dataset 1.0.6>
<indep frequency 200>
  +1.00000000000000000000e+06
  +2.10954773869346715510e+07
  +4.11909547738693431020e+07
  +6.12864321608040183783e+07
  +8.13819095477386862040e+07
  +1.01477386934673354030e+08
  +1.21572864321608036757e+08
  +1.41668341708542704582e+08
  +1.61763819095477372408e+08
  +1.81859296482412040234e+08
  +2.01954773869346708059e+08
  +2.22050251256281375885e+08
  +2.42145728643216073513e+08
  +2.62241206030150741339e+08
  +2.82336683417085409164e+08
  +3.02432160804020047188e+08
  +3.22527638190954744816e+08
  +3.42623115577889442444e+08
  +3.62718592964824080467e+08
  +3.82814070351758778095e+08
  +4.02909547738693416119e+08
  +4.23005025125628113747e+08
  +4.43100502512562751770e+08
  +4.63195979899497449398e+08
  +4.83291457286432147026e+08
  +5.03386934673366785049e+08
  +5.23482412060301482677e+08
  +5.43577889447236180305e+08
  +5.63673366834170818329e+08
  +5.83768844221105456352e+08
  +6.03864321608040094376e+08
  +6.23959798994974851608e+08
  +6.44055276381909489632e+08
  +6.64150753768844127655e+08
  +6.84246231155778884888e+08
  +7.04341708542713522911e+08
  +7.24437185929648160934e+08
  +7.44532663316582798958e+08
  +7.64628140703517556190e+08
  +7.84723618090452194214e+08
  +8.04819095477386832237e+08
  +8.24914572864321589470e+08
  +8.45010050251256227493e+08
  +8.65105527638190865517e+08
  +8.85201005025125503540e+08
  +9.05296482412060260773e+08
  +9.25391959798994898796e+08
  +9.45487437185929536819e+08
  +9.65582914572864294052e+08
  +9.85678391959798932076e+08
  +1.00577386934673357010e+09
  +1.02586934673366820812e+09
  +1.04596482412060296535e+09
  +1.06606030150753760338e+09
  +1.08615577889447236061e+09
  +1.10625125628140687943e+09
  +1.12634673366834163666e+09
  +1.14644221105527639389e+09
  +1.16653768844221091270e+09
  +1.18663316582914566994e+09
  +1.20672864321608018875e+09
  +1.22682412060301494598e+09
  +1.24691959798994970322e+09
  +1.26701507537688422203e+09
  +1.28711055276381897926e+09
  +1.30720603015075373650e+09
  +1.32730150753768825531e+09
  +1.34739698492462301254e+09
  +1.36749246231155776978e+09
  +1.38758793969849228859e+09
  +1.40768341708542704582e+09
  +1.42777889447236156464e+09
  +1.44787437185929632187e+09
  +1.46796984924623107910e+09
  +1.48806532663316559792e+09
  +1.50816080402010035515e+09
  +1.52825628140703511238e+09
  +1.54835175879396963120e+09
  +1.56844723618090438843e+09
  +1.58854271356783914566e+09
  +1.60863819095477366447e+09
  +1.62873366834170842171e+09
  +1.64882914572864317894e+09
  +1.66892462311557769775e+09
  +1.68902010050251245499e+09
  +1.70911557788944697380e+09
  +1.72921105527638173103e+09
  +1.74930653266331648827e+09
  +1.76940201005025100708e+09
  +1.78949748743718576431e+09
  +1.80959296482412052155e+09
  +1.82968844221105504036e+09
  +1.84978391959798979759e+09
  +1.86987939698492455482e+09
  +1.88997487437185907364e+09
  +1.91007035175879383087e+09
  +1.93016582914572858810e+09
  +1.95026130653266310692e+09
  +1.97035678391959786415e+09
  +1.99045226130653238297e+09
  +2.01054773869346714020e+09
  +2.03064321608040189743e+09
  +2.05073869346733641624e+09
  +2.07083417085427117348e+09
  +2.09092964824120593071e+09
  +2.11102512562814044952e+09
  +2.13112060301507520676e+09
  +2.15121608040200996399e+09
  +2.17131155778894472122e+09
  +2.19140703517587900162e+09
  +2.21150251256281375885e+09
  +2.23159798994974851608e+09
  +2.25169346733668327332e+09
  +2.27178894472361803055e+09
  +2.29188442211055278778e+09
  +2.31197989949748706818e+09
  +2.33207537688442182541e+09
  +2.35217085427135658264e+09
  +2.37226633165829133987e+09
  +2.39236180904522609711e+09
  +2.41245728643216037750e+09
  +2.43255276381909513474e+09
  +2.45264824120602989197e+09
  +2.47274371859296464920e+09
  +2.49283919597989940643e+09
  +2.51293467336683416367e+09
  +2.53303015075376844406e+09
  +2.55312562814070320129e+09
  +2.57322110552763795853e+09
  +2.59331658291457271576e+09
  +2.61341206030150747299e+09
  +2.63350753768844175339e+09
  +2.65360301507537651062e+09
  +2.67369849246231126785e+09
  +2.69379396984924602509e+09
  +2.71388944723618078232e+09
  +2.73398492462311553955e+09
  +2.75408040201004981995e+09
  +2.77417587939698457718e+09
  +2.79427135678391933441e+09
  +2.81436683417085409164e+09
  +2.83446231155778884888e+09
  +2.85455778894472312927e+09
  +2.87465326633165788651e+09
  +2.89474874371859264374e+09
  +2.91484422110552740097e+09
  +2.93493969849246215820e+09
  +2.95503517587939691544e+09
  +2.97513065326633119583e+09
  +2.99522613065326595306e+09
  +3.01532160804020071030e+09
  +3.03541708542713546753e+09
  +3.05551256281407022476e+09
  +3.07560804020100498199e+09
  +3.09570351758793926239e+09
  +3.11579899497487401962e+09
  +3.13589447236180877686e+09
  +3.15598994974874353409e+09
  +3.17608542713567829132e+09
  +3.19618090452261257172e+09
  +3.21627638190954732895e+09
  +3.23637185929648208618e+09
  +3.25646733668341684341e+09
  +3.27656281407035160065e+09
  +3.29665829145728635788e+09
  +3.31675376884422063828e+09
  +3.33684924623115539551e+09
  +3.35694472361809015274e+09
  +3.37704020100502490997e+09
  +3.39713567839195966721e+09
  +3.41723115577889394760e+09
  +3.43732663316582870483e+09
  +3.45742211055276346207e+09
  +3.47751758793969821930e+09
  +3.49761306532663297653e+09
  +3.51770854271356773376e+09
  +3.53780402010050201416e+09
  +3.55789949748743677139e+09
  +3.57799497487437152863e+09
  +3.59809045226130628586e+09
  +3.61818592964824104309e+09
  +3.63828140703517532349e+09
  +3.65837688442211008072e+09
  +3.67847236180904483795e+09
  +3.69856783919597959518e+09
  +3.71866331658291435242e+09
  +3.73875879396984910965e+09
  +3.75885427135678339005e+09
  +3.77894974874371814728e+09
  +3.79904522613065290451e+09
  +3.81914070351758766174e+09
  +3.83923618090452241898e+09
  +3.85933165829145717621e+09
  +3.87942713567839145660e+09
  +3.89952261306532621384e+09
  +3.91961809045226097107e+09
  +3.93971356783919572830e+09
  +3.95980904522613048553e+09
  +3.97990452261306476593e+09
  +3.99999999999999952316e+09
</indep>
<dep dBS11 frequency>
  +1.11429799339955504234e-01
  +1.53447739146926581677e-01
  +2.41307281053049882402e-01
  +3.54088410824088206663e-01
  +5.11106577371435832902e-01
  +7.28275525568627846162e-01
  +1.01376228971199489060e+00
  +1.32224787404289312320e+00
  +1.37987991663000042486e+00
  +4.91825525766638738112e-01
  -1.30776214818189706612e+00
  -2.57958102652952492306e+00
  -2.98543219137452586764e+00
  -2.99895572962449019627e+00
  -2.90323256333372370364e+00
  -2.79261467467568103018e+00
  -2.69356669548263694125e+00
  -2.61247656515993664783e+00
  -2.54814110508960078860e+00
  -2.49759925619167422184e+00
  -2.45713226958697195101e+00
  -2.42324616939047698949e+00
  -2.39935697972103412212e+00
  -2.38359324863658672555e+00
  -2.37437739872559738785e+00
  -2.36901033362894075651e+00
  -2.36239800401272193042e+00
  -2.36122882029065017662e+00
  -2.36469984353985385184e+00
  -2.37210317021525618486e+00
  -2.38196186822936795124e+00
  -2.39198963278347598305e+00
  -2.40591833836654789280e+00
  -2.42336944660846986821e+00
  -2.44399453732756244406e+00
  -2.46575177080283536313e+00
  -2.48439235308572436978e+00
  -2.50626714410522710708e+00
  -2.53118495767324880319e+00
  -2.55896757768964011603e+00
  -2.58788700346314648471e+00
  -2.61469909372890940702e+00
  -2.64440377435287565788e+00
  -2.67689702474134660903e+00
  -2.71207935707701741634e+00
  -2.74883203163559919346e+00
  -2.78550241623845717953e+00
  -2.82504661639401799533e+00
  -2.86742274876551395124e+00
  -2.91259072167938271036e+00
  -2.95872375409897880871e+00
  -3.00312878154655971130e+00
  -3.05019799796098789457e+00
  -3.09989682672442512512e+00
  -3.15218857377579730894e+00
  -3.20492189024034956901e+00
  -3.25537241431214408038e+00
  -3.30810108913441824896e+00
  -3.36304784710632098665e+00
  -3.42014693199666641732e+00
  -3.47747850070618991225e+00
  -3.53308427412571068871e+00
  -3.59051914466046673269e+00
  -3.64968840394881510747e+00
  -3.71048974695200772800e+00
  -3.76990728507045025353e+00
  -3.82528639843660078768e+00
  -3.88157688231955244618e+00
  -3.93863960021090653285e+00
  -3.99633093030338892859e+00
  -4.05235577002692082260e+00
  -4.10511574524285727250e+00
  -4.15787567499165255924e+00
  -4.21048997403855462807e+00
  -4.26281648263317514136e+00
  -4.31217779466452366677e+00
  -4.35712855397425258275e+00
  -4.40120606278558401669e+00
  -4.44430345079773836403e+00
  -4.48632523282492012839e+00
  -4.52504169583572757318e+00
  -4.55959895340445342526e+00
  -4.59276499586998099289e+00
  -4.62451143441445911009e+00
  -4.65482440526029694894e+00
  -4.68007090711265050231e+00
  -4.69941302846935560211e+00
  -4.71720834749843032085e+00
  -4.73348779787887430359e+00
  -4.74828988294667819758e+00
  -4.76124008848482205281e+00
  -4.77237717655155702090e+00
  -4.78224241887582390831e+00
  -4.79091451806982782102e+00
  -4.79847246095546964284e+00
  -4.80105643379311253227e+00
  -4.79875216393348846822e+00
  -4.79555837995534872675e+00
  -4.79155224908109289572e+00
  -4.78680295933744393011e+00
  -4.77925871296797666332e+00
  -4.76916048320617669276e+00
  -4.75845650541828391056e+00
  -4.74717450635105642220e+00
  -4.73532947133529091843e+00
  -4.72091386596432460721e+00
  -4.70437935667387563399e+00
  -4.68739997390065532556e+00
  -4.66995485292155088075e+00
  -4.65200951135773621559e+00
  -4.63275841372034058452e+00
  -4.61237807553540690719e+00
  -4.59137863773324195193e+00
  -4.56967954092808081867e+00
  -4.54718684253184068922e+00
  -4.52238273488187214610e+00
  -4.49577575043731947346e+00
  -4.46825111765784122042e+00
  -4.43968626437761582082e+00
  -4.40994799600965681208e+00
  -4.37726659831632591846e+00
  -4.34230450286657543302e+00
  -4.30596307572849301692e+00
  -4.26809956464088813277e+00
  -4.22856585539396334639e+00
  -4.18529861513657408523e+00
  -4.13907063556858378917e+00
  -4.09081158114316689733e+00
  -4.04037903056505687260e+00
  -3.98763250066329266730e+00
  -3.93100007043828636455e+00
  -3.87103197600893000896e+00
  -3.80831572751318958581e+00
  -3.74274097995417864837e+00
  -3.67420816931216753787e+00
  -3.60526646969891961803e+00
  -3.53474426144283215834e+00
  -3.46147664166104185313e+00
  -3.38542667235854910501e+00
  -3.30657364863968128432e+00
  -3.22441782079881322787e+00
  -3.13950819452041063329e+00
  -3.05212187401988099822e+00
  -2.96231725386454147753e+00
  -2.87017039354660674633e+00
  -2.77651780999368913427e+00
  -2.68113174294978851009e+00
  -2.58389669235419994209e+00
  -2.48495325694399449290e+00
  -2.38445555249240737083e+00
  -2.28253124889909830841e+00
  -2.17949364708991577544e+00
  -2.07555477071762384256e+00
  -1.97090660661438099588e+00
  -1.86574623118095717089e+00
  -1.76194692276069808656e+00
  -1.65864801146188423076e+00
  -1.55560587816675166550e+00
  -1.45301004146324030941e+00
  -1.35104590482136455165e+00
  -1.25183109203727904735e+00
  -1.15414667411546423281e+00
  -1.05770362118965732812e+00
  -9.62648197003978078889e-01
  -8.69116584053862162307e-01
  -7.79183593435900823110e-01
  -6.91473722002494461947e-01
  -6.05698036572594689098e-01
  -5.21937839422829563674e-01
  -4.40262756276997901939e-01
  -3.60253187700559973639e-01
  -2.82394860191475083333e-01
  -2.06804842166299185369e-01
  -1.33506861800575082899e-01
  -6.25143578440106179039e-02
  +3.90825669049000429256e-03
  +6.77287961229467022628e-02
  +1.29269836495326029269e-01
  +1.88554244929434955402e-01
  +2.45596500840711717828e-01
  +2.98801491756161607949e-01
  +3.49814710854800814399e-01
  +3.98738382107091726692e-01
  +4.45611492587560609202e-01
  +4.90503367835146808495e-01
  +5.34188009197081981050e-01
  +5.76031346135734922953e-01
  +6.16043539778289406250e-01
  +6.54291687283717338097e-01
  +6.90843514044987450085e-01
  +7.25356447114319458080e-01
  +7.58264226823228693064e-01
  +7.89655790764977050245e-01
  +8.19599647523332253130e-01
  +8.48163509878584243040e-01
  +8.74303689769403535870e-01
  +8.99176252373124818007e-01
  +9.22872670409880968556e-01
  +9.45455783191603393867e-01
  +9.66986809365219412982e-01
</dep>
<dep dBS21 frequency>
  -2.41379321431485820426e+01
  +6.83381731245635570815e+00
  +9.55037199957408944329e+00
  +1.25519777656966233792e+01
  +1.53716269831012830593e+01
  +1.81071355190239913213e+01
  +2.08753648058899869966e+01
  +2.37035788331486152458e+01
  +2.62918313362680855505e+01
  +2.76418857241233837385e+01
  +2.70287101106885785384e+01
  +2.53846589954754620067e+01
  +2.36587631596035592452e+01
  +2.21348551392185299846e+01
  +2.08349160358466392040e+01
  +1.97244207741257646660e+01
  +1.87596891262643055143e+01
  +1.79157910619576448141e+01
  +1.71699067022088591727e+01
  +1.65049010885907847523e+01
  +1.59072367655312660872e+01
  +1.53623744219611975126e+01
  +1.48647029693266912176e+01
  +1.44082130275413611287e+01
  +1.39881264537922422875e+01
  +1.36003707785738683356e+01
  +1.32397487966493585532e+01
  +1.29040069892303410626e+01
  +1.25909940224814000942e+01
  +1.22989166262320956946e+01
  +1.20255729421325874284e+01
  +1.17665671985829600743e+01
  +1.15231209087526682566e+01
  +1.12942628136966725094e+01
  +1.10791601764593465873e+01
  +1.08766357769606294426e+01
  +1.06841037582893072511e+01
  +1.05021692832710975551e+01
  +1.03302952302793276118e+01
  +1.01680073665971644203e+01
  +1.00142672676983259805e+01
  +9.86687373962857705578e+00
  +9.72712693298719521806e+00
  +9.59468389423545175987e+00
  +9.46923431882989952157e+00
  +9.34954702911021406919e+00
  +9.23313532128595859660e+00
  +9.12207437454852509973e+00
  +9.01609682837931458721e+00
  +8.91495311311665439291e+00
  +8.81781522139145579331e+00
  +8.72323678176382166782e+00
  +8.63226884295086094312e+00
  +8.54468190452689668746e+00
  +8.46025727174077424309e+00
  +8.37820702940720885010e+00
  +8.29734752813080334022e+00
  +8.21860615483858936159e+00
  +8.14177702750532539255e+00
  +8.06666292711128818382e+00
  +7.99255726667786348116e+00
  +7.91862738716138281347e+00
  +7.84565355442541889630e+00
  +7.77346439761334995211e+00
  +7.70189876481692881072e+00
  +7.63033072548305124627e+00
  +7.55805187330793160072e+00
  +7.48568160209874466915e+00
  +7.41308859031735423173e+00
  +7.34015383656576059224e+00
  +7.26585810214182181710e+00
  +7.18940219102876110213e+00
  +7.11211140218479087594e+00
  +7.03391267745247983356e+00
  +6.95474728579763379344e+00
  +6.87417181076737726642e+00
  +6.79188529639647775582e+00
  +6.70841451123461141037e+00
  +6.62375178173087952871e+00
  +6.53790356401843730794e+00
  +6.45009363063521323767e+00
  +6.35999278388375977045e+00
  +6.26865696110204506653e+00
  +6.17613717256167227276e+00
  +6.08249585891500554879e+00
  +5.98872526451772468903e+00
  +5.89507456333250345892e+00
  +5.80051457576718654252e+00
  +5.70513819824387002910e+00
  +5.60904578277400833741e+00
  +5.51089880327751124867e+00
  +5.41058309018246141875e+00
  +5.30976308463246038372e+00
  +5.20855534507088968610e+00
  +5.10707938328818134011e+00
  +5.00538987476399732657e+00
  +4.90352356302985370462e+00
  +4.80163220013929770147e+00
  +4.69982742526951824402e+00
  +4.59822011206675451689e+00
  +4.49703916463343489340e+00
  +4.39634452406296993843e+00
  +4.29611957429023050281e+00
  +4.19646397949415828066e+00
  +4.09747449394393647992e+00
  +3.99861981304949365423e+00
  +3.90001505188065600294e+00
  +3.80222924177119114830e+00
  +3.70533713858313884515e+00
  +3.60940923879341113434e+00
  +3.51418080491783069164e+00
  +3.41977453735406822233e+00
  +3.32648657882821385812e+00
  +3.23436694024056681229e+00
  +3.14346072609086579774e+00
  +3.05304362619539038093e+00
  +2.96331473493755437332e+00
  +2.87479645979962494806e+00
  +2.78750835871668556365e+00
  +2.70146477143468199955e+00
  +2.61600591582735297891e+00
  +2.53128231165706862882e+00
  +2.44767185518128815858e+00
  +2.36516269559948932866e+00
  +2.28373771057076702107e+00
  +2.20330691341880857692e+00
  +2.12382581546158810681e+00
  +2.04528835659047736328e+00
  +1.96765608561891092165e+00
  +1.89088549767896219045e+00
  +1.81536908822471088065e+00
  +1.74084672749395896751e+00
  +1.66704302825670325205e+00
  +1.59389457738721018742e+00
  +1.52133322541141113859e+00
  +1.44744095634842584452e+00
  +1.37304644383611229586e+00
  +1.29886794897294688411e+00
  +1.22481601697807707119e+00
  +1.15079774876569596032e+00
  +1.07606370373305049171e+00
  +1.00085478708509167944e+00
  +9.25322516192102928478e-01
  +8.49365125252544705958e-01
  +7.72879687010777916001e-01
  +6.95053097078441428636e-01
  +6.16195203077753883569e-01
  +5.36446817969069233989e-01
  +4.55705804365125421995e-01
  +3.73872019272557309932e-01
  +2.90546832039209501630e-01
  +2.05823678643134472255e-01
  +1.19703761242118941754e-01
  +3.21019076565736555251e-02
  -5.70615715625811745215e-02
  -1.49087856516811750884e-01
  -2.43196363489283473580e-01
  -3.39116416468526693517e-01
  -4.36897437635465013539e-01
  -5.36580294512648992011e-01
  -6.39371273076292157000e-01
  -7.44423831479256725707e-01
  -8.51476480812235703155e-01
  -9.60530279580337209566e-01
  -1.07157644927346851205e+00
  -1.18577568863853044512e+00
  -1.30216987680410101191e+00
  -1.42048569362148136008e+00
  -1.54067457227159976263e+00
  -1.66267920985992767591e+00
  -1.78615115009450642347e+00
  -1.91126022042359311470e+00
  -2.03797442940243378473e+00
  -2.16620753824285250388e+00
  -2.29586721114534375587e+00
  -2.42811515419878798383e+00
  -2.56176279667456485711e+00
  -2.69653396878992523966e+00
  -2.83232061807633161976e+00
  -2.96901133217205570602e+00
  -3.10726217773925439403e+00
  -3.24624683130088520500e+00
  -3.38584727066131918605e+00
  -3.52587588161201681558e+00
  -3.66620838925392433794e+00
  -3.80630160368879133514e+00
  -3.94645522315300834038e+00
  -4.08658929688432515093e+00
  -4.22659167919153322401e+00
  -4.36635183263534010223e+00
  -4.50622515255131439460e+00
  -4.64567825125996769486e+00
  -4.78458281590786072002e+00
  -4.92283578977479852057e+00
  -5.06033670332130824931e+00
  -5.19771251897648767226e+00
  -5.33416708891593405184e+00
  -5.46959087916393649209e+00
  -5.60389477228513488427e+00
  -5.73699248780156167982e+00
</dep>
<dep dBS12 frequency>
  -6.98406321127632168100e+01
  -4.04300974146919003260e+01
  -4.03400696958674060966e+01
  -3.96238706475140816110e+01
  -3.87564346282823137813e+01
  -3.78717750005472524322e+01
  -3.70937611605620247701e+01
  -3.66612816488482735622e+01
  -3.71815372361119429456e+01
  -3.93203529914282938762e+01
  -3.94315315192137276767e+01
  -3.68335243366658531272e+01
  -3.48164170181057670561e+01
  -3.33906417015083079036e+01
  -3.22876143984029013723e+01
  -3.13783590441581807795e+01
  -3.06426607469547889195e+01
  -2.99702626397068208064e+01
  -2.93430353245026083187e+01
  -2.87503127583081266039e+01
  -2.81956647586265596317e+01
  -2.77191082314126333586e+01
  -2.72534962442374038005e+01
  -2.67970732255836630031e+01
  -2.63486754474400655113e+01
  -2.59167310944985445076e+01
  -2.55343351933164655065e+01
  -2.51539160075773295944e+01
  -2.47752194662574112272e+01
  -2.43981060453168012714e+01
  -2.40304515168292596172e+01
  -2.36962438294079333900e+01
  -2.33612037008182937825e+01
  -2.30253119462345132717e+01
  -2.26885913678965636109e+01
  -2.23612029595705621432e+01
  -2.20692256958706387593e+01
  -2.17756696228206081400e+01
  -2.14805598075430523863e+01
  -2.11839424391235553458e+01
  -2.08933729161172863087e+01
  -2.06249290925644537253e+01
  -2.03547647626294470058e+01
  -2.00829353206679428467e+01
  -1.98095101622169131872e+01
  -1.95412981601711308599e+01
  -1.92904948169572207917e+01
  -1.90383955164072986577e+01
  -1.87850684390951769842e+01
  -1.85305913615054400623e+01
  -1.82827583310119763382e+01
  -1.80531988657373041463e+01
  -1.78229558846728473043e+01
  -1.75921234509007469171e+01
  -1.73608019858844500050e+01
  -1.71367310615246921657e+01
  -1.69294915728779642450e+01
  -1.67223899156855857484e+01
  -1.65155343034122523704e+01
  -1.63090354314131076308e+01
  -1.61066743185572889274e+01
  -1.59121764323091312576e+01
