<Qucs Dataset 1.0.6>
<indep frequency 200>
  +1.00000000000000000000e+07
  +3.00502512562814056873e+07
  +5.01005025125628113747e+07
  +7.01507537688442170620e+07
  +9.02010050251256227493e+07
  +1.10251256281407028437e+08
  +1.30301507537688434124e+08
  +1.50351758793969839811e+08
  +1.70402010050251245499e+08
  +1.90452261306532651186e+08
  +2.10502512562814056873e+08
  +2.30552763819095462561e+08
  +2.50603015075376868248e+08
  +2.70653266331658244133e+08
  +2.90703517587939679623e+08
  +3.10753768844221115112e+08
  +3.30804020100502490997e+08
  +3.50854271356783866882e+08
  +3.70904522613065302372e+08
  +3.90954773869346737862e+08
  +4.11005025125628113747e+08
  +4.31055276381909489632e+08
  +4.51105527638190925121e+08
  +4.71155778894472360611e+08
  +4.91206030150753736496e+08
  +5.11256281407035112381e+08
  +5.31306532663316547871e+08
  +5.51356783919597983360e+08
  +5.71407035175879359245e+08
  +5.91457286432160735130e+08
  +6.11507537688442230225e+08
  +6.31557788944723606110e+08
  +6.51608040201004981995e+08
  +6.71658291457286357880e+08
  +6.91708542713567733765e+08
  +7.11758793969849228859e+08
  +7.31809045226130604744e+08
  +7.51859296482411980629e+08
  +7.71909547738693475723e+08
  +7.91959798994974851608e+08
  +8.12010050251256227493e+08
  +8.32060301507537603378e+08
  +8.52110552763818979263e+08
  +8.72160804020100474358e+08
  +8.92211055276381850243e+08
  +9.12261306532663226128e+08
  +9.32311557788944721222e+08
  +9.52361809045226097107e+08
  +9.72412060301507472992e+08
  +9.92462311557788848877e+08
  +1.01251256281407022476e+09
  +1.03256281407035171986e+09
  +1.05261306532663309574e+09
  +1.07266331658291447163e+09
  +1.09271356783919596672e+09
  +1.11276381909547734261e+09
  +1.13281407035175871849e+09
  +1.15286432160804009438e+09
  +1.17291457286432147026e+09
  +1.19296482412060284615e+09
  +1.21301507537688446045e+09
  +1.23306532663316583633e+09
  +1.25311557788944721222e+09
  +1.27316582914572858810e+09
  +1.29321608040200996399e+09
  +1.31326633165829133987e+09
  +1.33331658291457271576e+09
  +1.35336683417085409164e+09
  +1.37341708542713546753e+09
  +1.39346733668341708183e+09
  +1.41351758793969845772e+09
  +1.43356783919597983360e+09
  +1.45361809045226120949e+09
  +1.47366834170854258537e+09
  +1.49371859296482396126e+09
  +1.51376884422110533714e+09
  +1.53381909547738695145e+09
  +1.55386934673366832733e+09
  +1.57391959798994970322e+09
  +1.59396984924623107910e+09
  +1.61402010050251245499e+09
  +1.63407035175879383087e+09
  +1.65412060301507520676e+09
  +1.67417085427135658264e+09
  +1.69422110552763795853e+09
  +1.71427135678391957283e+09
  +1.73432160804020094872e+09
  +1.75437185929648232460e+09
  +1.77442211055276370049e+09
  +1.79447236180904507637e+09
  +1.81452261306532645226e+09
  +1.83457286432160782814e+09
  +1.85462311557788944244e+09
  +1.87467336683417081833e+09
  +1.89472361809045219421e+09
  +1.91477386934673357010e+09
  +1.93482412060301494598e+09
  +1.95487437185929632187e+09
  +1.97492462311557769775e+09
  +1.99497487437185907364e+09
  +2.01502512562814044952e+09
  +2.03507537688442206383e+09
  +2.05512562814070343971e+09
  +2.07517587939698481560e+09
  +2.09522613065326619148e+09
  +2.11527638190954756737e+09
  +2.13532663316582894325e+09
  +2.15537688442211055756e+09
  +2.17542713567839193344e+09
  +2.19547738693467330933e+09
  +2.21552763819095468521e+09
  +2.23557788944723606110e+09
  +2.25562814070351743698e+09
  +2.27567839195979881287e+09
  +2.29572864321608018875e+09
  +2.31577889447236156464e+09
  +2.33582914572864294052e+09
  +2.35587939698492431641e+09
  +2.37592964824120569229e+09
  +2.39597989949748706818e+09
  +2.41603015075376892090e+09
  +2.43608040201005029678e+09
  +2.45613065326633167267e+09
  +2.47618090452261304855e+09
  +2.49623115577889442444e+09
  +2.51628140703517580032e+09
  +2.53633165829145717621e+09
  +2.55638190954773855209e+09
  +2.57643216080401992798e+09
  +2.59648241206030130386e+09
  +2.61653266331658267975e+09
  +2.63658291457286405563e+09
  +2.65663316582914543152e+09
  +2.67668341708542680740e+09
  +2.69673366834170818329e+09
  +2.71678391959798955917e+09
  +2.73683417085427093506e+09
  +2.75688442211055278778e+09
  +2.77693467336683416367e+09
  +2.79698492462311553955e+09
  +2.81703517587939691544e+09
  +2.83708542713567829132e+09
  +2.85713567839195966721e+09
  +2.87718592964824104309e+09
  +2.89723618090452241898e+09
  +2.91728643216080379486e+09
  +2.93733668341708517075e+09
  +2.95738693467336654663e+09
  +2.97743718592964792252e+09
  +2.99748743718592929840e+09
  +3.01753768844221067429e+09
  +3.03758793969849205017e+09
  +3.05763819095477390289e+09
  +3.07768844221105527878e+09
  +3.09773869346733665466e+09
  +3.11778894472361803055e+09
  +3.13783919597989940643e+09
  +3.15788944723618078232e+09
  +3.17793969849246215820e+09
  +3.19798994974874353409e+09
  +3.21804020100502490997e+09
  +3.23809045226130628586e+09
  +3.25814070351758766174e+09
  +3.27819095477386903763e+09
  +3.29824120603015041351e+09
  +3.31829145728643178940e+09
  +3.33834170854271316528e+09
  +3.35839195979899454117e+09
  +3.37844221105527591705e+09
  +3.39849246231155776978e+09
  +3.41854271356783914566e+09
  +3.43859296482412052155e+09
  +3.45864321608040189743e+09
  +3.47869346733668327332e+09
  +3.49874371859296464920e+09
  +3.51879396984924602509e+09
  +3.53884422110552740097e+09
  +3.55889447236180877686e+09
  +3.57894472361809015274e+09
  +3.59899497487437152863e+09
  +3.61904522613065290451e+09
  +3.63909547738693428040e+09
  +3.65914572864321565628e+09
  +3.67919597989949703217e+09
  +3.69924623115577888489e+09
  +3.71929648241206026077e+09
  +3.73934673366834163666e+09
  +3.75939698492462301254e+09
  +3.77944723618090438843e+09
  +3.79949748743718576431e+09
  +3.81954773869346714020e+09
  +3.83959798994974851608e+09
  +3.85964824120602989197e+09
  +3.87969849246231126785e+09
  +3.89974874371859264374e+09
  +3.91979899497487401962e+09
  +3.93984924623115539551e+09
  +3.95989949748743677139e+09
  +3.97994974874371814728e+09
  +3.99999999999999952316e+09
</indep>
<dep dBS11 frequency>
  +1.59130759753793427080e-01
  +1.86312618527214757247e-01
  +2.72583434990881556814e-01
  +3.79319532106234758029e-01
  +5.12090661054554807663e-01
  +6.73313882886476644529e-01
  +8.64087947722648186399e-01
  +1.08407612336480951853e+00
  +1.33067109564383523335e+00
  +1.59756304889859124252e+00
  +1.87269272325452806882e+00
  +2.13577802900914948125e+00
  +2.35624452251668436986e+00
  +2.49353128349788200069e+00
  +2.50269331772360192900e+00
  +2.28622504790277769615e+00
  +1.83266195125129516263e+00
  +1.21600682952273819737e+00
  +4.84227650137579790357e-01
  -3.06563224054097582805e-01
  -1.15371933958462946634e+00
  -2.01088414390312353319e+00
  -2.81281912996715721675e+00
  -3.54379996446935852106e+00
  -4.19563190685331299790e+00
  -4.78993838780454606052e+00
  -5.32529489133685274282e+00
  -5.78719326139688572397e+00
  -6.18094393175530942841e+00
  -6.51269980120687907998e+00
  -6.81036142783737474815e+00
  -7.07584296285137615001e+00
  -7.29958473211331515529e+00
  -7.48717908475826376957e+00
  -7.64358524210969303425e+00
  -7.77727708798842343185e+00
  -7.89142881879185509320e+00
  -7.98681355793868696935e+00
  -8.06645772898890456304e+00
  -8.13284825131702504564e+00
  -8.18546645111128690075e+00
  -8.22729121049544964706e+00
  -8.26174143966468221834e+00
  -8.29013143124097950931e+00
  -8.31348475514932339081e+00
  -8.33214940807441273307e+00
  -8.34771572902018554885e+00
  -8.36130135052350453861e+00
  -8.37342476173956029584e+00
  -8.38446859444708536557e+00
  -8.38950644386052957202e+00
  -8.39118046951770146791e+00
  -8.39295377152352273242e+00
  -8.39501448493628465997e+00
  -8.39748468877683151845e+00
  -8.39389189738509600147e+00
  -8.38737253764996459893e+00
  -8.38180928562907290313e+00
  -8.37726015581893257433e+00
  -8.37374929889901586932e+00
  -8.36473366421447472874e+00
  -8.35347068004630699534e+00
  -8.34354679472287230624e+00
  -8.33493911235946072225e+00
  -8.32760505148042717849e+00
  -8.31453624793280710037e+00
  -8.29924800048736877045e+00
  -8.28530123315681699125e+00
  -8.27265983889619604952e+00
  -8.26127693966605747278e+00
  -8.24610177430808022336e+00
  -8.22990602171489982197e+00
  -8.21511528565448401196e+00
  -8.20168956814495331287e+00
  -8.18958263358983273861e+00
  -8.17313736651450639670e+00
  -8.15546820807619354810e+00
  -8.13911364113532975750e+00
  -8.12403056272735923926e+00
  -8.11017200731649801071e+00
  -8.09389379163337352452e+00
  -8.07735739186666101830e+00
  -8.06210115479080258183e+00
  -8.04808822726604233821e+00
  -8.03527959044780182296e+00
  -8.01546723839003405487e+00
  -7.99340937830714892698e+00
  -7.97235935055414302042e+00
  -7.95227176405469471376e+00
  -7.93309945974116104139e+00
  -7.91542610741954888454e+00
  -7.89900257400876704139e+00
  -7.88358457240052068471e+00
  -7.86913841719220741311e+00
  -7.85562929736386106327e+00
  -7.83728768278984055939e+00
  -7.81777944053402684688e+00
  -7.79912598423859293462e+00
  -7.78129864110783309172e+00
  -7.76426802563931772738e+00
  -7.74382567239214658628e+00
  -7.72274833792165882329e+00
  -7.70240805979388820646e+00
  -7.68277522798981493679e+00
  -7.66381959042080396216e+00
  -7.64244377112798467522e+00
  -7.62080253887880054720e+00
  -7.59983950903122718046e+00
  -7.57952969720651736907e+00
  -7.55984771869737137706e+00
  -7.53969046946983745272e+00
  -7.51983240248435524933e+00
  -7.50056888934426257975e+00
  -7.48187669298798496698e+00
  -7.46373213859593764852e+00
  -7.44288638849926798002e+00
  -7.42175850372291279200e+00
  -7.40121177111115446934e+00
  -7.38122567799254536425e+00
  -7.36177942747393743161e+00
  -7.33971400979840638001e+00
  -7.31739365493377214023e+00
  -7.29559129198540912142e+00
  -7.27428918724458561940e+00
  -7.25346944879655897154e+00
  -7.22984731167581973210e+00
  -7.20592239455844207896e+00
  -7.18243450867999833065e+00
  -7.15936648489030691422e+00
  -7.13670100872940249559e+00
  -7.11226479685587875679e+00
  -7.08774443677590859636e+00
  -7.06358157378423001660e+00
  -7.03975831622597425508e+00
  -7.01625657036085037532e+00
  -6.99395709603521353870e+00
  -6.97219688232673018291e+00
  -6.95079384581847747882e+00
  -6.92973394376900486691e+00
  -6.90900298683203661909e+00
  -6.88551664047037181859e+00
  -6.86181547585842377401e+00
  -6.83843219962427895098e+00
  -6.81535383295087804356e+00
  -6.79256728210701066217e+00
  -6.76917979328049135290e+00
  -6.74595087529044157293e+00
  -6.72301164251199878663e+00
  -6.70035004494164709854e+00
  -6.67795392054238678980e+00
  -6.65436427116254591851e+00
  -6.63082563439947492157e+00
  -6.60753498451600584929e+00
  -6.58448080066076446570e+00
  -6.56165144247812914813e+00
  -6.53773611042173374841e+00
  -6.51390388408971432455e+00
  -6.49031248699796670110e+00
  -6.46695168697431821414e+00
  -6.44381115998006048784e+00
  -6.42021825605877438647e+00
  -6.39677958647472788556e+00
  -6.37356135900352960277e+00
  -6.35055446401145573532e+00
  -6.32774971248369411114e+00
  -6.30385242090734720932e+00
  -6.28004798690701004915e+00
  -6.25645352345252270254e+00
  -6.23306103171228453874e+00
  -6.20986245882121323802e+00
  -6.18525860939544003259e+00
  -6.16069682584937350356e+00
  -6.13629819887177418991e+00
  -6.11205464894824945787e+00
  -6.08795802740865177327e+00
  -6.06408329714373017794e+00
  -6.04037360496512754082e+00
  -6.01681702394742146112e+00
  -5.99340620311525817954e+00
  -5.97013371784999513636e+00
  -5.94589177851372951977e+00
  -5.92174732705869466542e+00
  -5.89775273329182958548e+00
  -5.87390143992621549529e+00
  -5.85018683110259285485e+00
  -5.82409059100573056611e+00
  -5.79802883055444695515e+00
  -5.77209324785113420120e+00
  -5.74627720017551091303e+00
  -5.72057398586891707737e+00
  -5.69461353079321064286e+00
  -5.66876326353584847340e+00
  -5.64302630949632089141e+00
  -5.61739614003077925020e+00
  -5.59186616070286568458e+00
  -5.56630460342494171044e+00
  -5.54084313201001155136e+00
  -5.51547720610959668619e+00
  -5.49020053969397814342e+00
  -5.46500677500794918018e+00
</dep>
<dep dBS21 frequency>
  +8.12132963264780372015e+00
  +7.88190031075471253530e+00
  +1.06245074848975384896e+01
  +1.30745024174115709314e+01
  +1.51634918107846417001e+01
  +1.69822833052757324879e+01
  +1.86081968445755983055e+01
  +2.00946035242496705564e+01
  +2.14757813321583128641e+01
  +2.27707853517439318125e+01
  +2.39849727459851607136e+01
  +2.51098181444273933494e+01
  +2.61223217529960649586e+01
  +2.69863034631299569810e+01
  +2.76587119087480992619e+01
  +2.80668925513829883300e+01
  +2.82008098783988501168e+01
  +2.81122270908402853706e+01
  +2.78457091571506154537e+01
  +2.74537166547137942985e+01
  +2.69683975211460378318e+01
  +2.64340173490759546837e+01
  +2.58886781411321891255e+01
  +2.53473678566016324964e+01
  +2.48191070252040688615e+01
  +2.43120125242856808256e+01
  +2.38271011596204189686e+01
  +2.33623662271919876332e+01
  +2.29175923915989656621e+01
  +2.24921800010141623716e+01
  +2.20886536752784792270e+01
  +2.17040865080438294399e+01
  +2.13347060122178859842e+01
  +2.09795699380791802469e+01
  +2.06378227183667206646e+01
  +2.03145033076099394975e+01
  +2.00062135199614168357e+01
  +1.97079260563866611733e+01
  +1.94190343089096160156e+01
  +1.91390047137672567601e+01
  +1.88709918174292710091e+01
  +1.86128178186957669027e+01
  +1.83615209051937178231e+01
  +1.81167491170994310323e+01
  +1.78781950024318945225e+01
  +1.76492761141174625550e+01
  +1.74278544763611833446e+01
  +1.72112125478587216776e+01
  +1.69991305567652482011e+01
  +1.67914147694305846414e+01
  +1.65922503233641478460e+01
  +1.63994694392338935529e+01
  +1.62102312839318365434e+01
  +1.60243986388773329566e+01
  +1.58418500203654115666e+01
  +1.56664491175514051235e+01
  +1.54961855405835429167e+01
  +1.53286475314120487212e+01
  +1.51637453216909090514e+01
  +1.50013989894118910939e+01
  +1.48428341825193008674e+01
  +1.46872606674835814999e+01
  +1.45338859524453063443e+01
  +1.43826525961940845377e+01
  +1.42335103854669107193e+01
  +1.40903416278299999931e+01
  +1.39510530889763941786e+01
  +1.38135661327978542801e+01
  +1.36778410068564788560e+01
  +1.35438426853935229843e+01
  +1.34131267059426910748e+01
  +1.32847081329070331179e+01
  +1.31577618571116801149e+01
  +1.30322586570924432436e+01
  +1.29081726967697569819e+01
  +1.27873992418273481064e+01
  +1.26687968847299554653e+01
  +1.25514536826347864462e+01
  +1.24353491922895909028e+01
  +1.23204655085320684549e+01
  +1.22081141244214173014e+01
  +1.20974189588023435249e+01
  +1.19877727728512066818e+01
  +1.18791590777001605517e+01
  +1.17715632365158366923e+01
  +1.16675388532349444404e+01
  +1.15655666087671136211e+01
  +1.14646004214835439683e+01
  +1.13646317464974053735e+01
  +1.12656536123951749317e+01
  +1.11677242039032336152e+01
  +1.10706807707918208905e+01
  +1.09744714924739383832e+01
  +1.08790884536015592943e+01
  +1.07845249405063920989e+01
  +1.06931956998857753405e+01
  +1.06035046159871768623e+01
  +1.05145756914720873709e+01
  +1.04264033756822307453e+01
  +1.03389830197336110018e+01
  +1.02532402830221229806e+01
  +1.01685353314471313979e+01
  +1.00845513656258098933e+01
  +1.00012857427774797259e+01
  +9.91873662251665777490e+00
  +9.83778721130752309421e+00
  +9.75777097330749043635e+00
  +9.67840128454547432568e+00
  +9.59967612108637524670e+00
  +9.52159409294993253070e+00
  +9.44445177319835060814e+00
  +9.36801107893375117897e+00
  +9.29218116318765297024e+00
  +9.21696171530237151615e+00
  +9.14235300617525403766e+00
  +9.06849221890871604046e+00
  +8.99522695155906149012e+00
  +8.92251354847203081988e+00
  +8.85035206439735588901e+00
  +8.77874304848794650979e+00
  +8.70876522560098464965e+00
  +8.63956870250497743768e+00
  +8.57087814586723517607e+00
  +8.50269362337137479813e+00
  +8.43501559030829284325e+00
  +8.36884454113175735301e+00
  +8.30339650424387443195e+00
  +8.23843890443182225169e+00
  +8.17397259435921341719e+00
  +8.10999876507170469608e+00
  +8.04689472679442197034e+00
  +7.98436097426908375496e+00
  +7.92231884560151922159e+00
  +7.86077047188594946192e+00
  +7.79971831779951152441e+00
  +7.73875482148785032166e+00
  +7.67815568982659257813e+00
  +7.61799723967984476758e+00
  +7.55828123670134921497e+00
  +7.49900972820421429788e+00
  +7.44084930469042404866e+00
  +7.38322964467822018264e+00
  +7.32603283037071051353e+00
  +7.26926082756701497090e+00
  +7.21291584372736682695e+00
  +7.15694420942723308343e+00
  +7.10136896650571447509e+00
  +7.04619917767480341553e+00
  +6.99143709750584907425e+00
  +6.93708520497355873857e+00
  +6.88342029464211435652e+00
  +6.83019154612003820404e+00
  +6.77736086921342550937e+00
  +6.72493088225826962656e+00
  +6.67290441214514018498e+00
  +6.62113256735421096266e+00
  +6.56971590421380646774e+00
  +6.51867402442052235045e+00
  +6.46800946914314867087e+00
  +6.41772496512135859348e+00
  +6.36785567933414231589e+00
  +6.31834664967028203364e+00
  +6.26919510247768574374e+00
  +6.22040354084458968487e+00
  +6.17197463255918954417e+00
  +6.12395381656152704153e+00
  +6.07627222001408817675e+00
  +6.02892638357746957212e+00
  +5.98191858469147685895e+00
  +5.93525124171432771902e+00
  +5.88955068995335917492e+00
  +5.84423954729796779617e+00
  +5.79926928992549228781e+00
  +5.75464250262487553300e+00
  +5.71036190221034711811e+00
  +5.66611445089902510119e+00
  +5.62217654864247595725e+00
  +5.57857124679386195965e+00
  +5.53530128578466840139e+00
  +5.49236953186771970081e+00
  +5.44959668682974118781e+00
  +5.40712885995765013547e+00
  +5.36497740214865270758e+00
  +5.32314490539081930365e+00
  +5.28163407328877543279e+00
  +5.24085289161109990630e+00
  +5.20040199167647099188e+00
  +5.16026790444793448387e+00
  +5.12045333259489865441e+00
  +5.08096108201951590644e+00
  +5.04146442028525765267e+00
  +5.00227493571802561689e+00
  +4.96340381332073654619e+00
  +4.92485402609793432305e+00
  +4.88662865286317416036e+00
  +4.84863015060097701792e+00
  +4.81094639331913143110e+00
  +4.77358158550550726318e+00
  +4.73653884656785173490e+00
  +4.69982139838714374491e+00
</dep>
<dep dBS12 frequency>
  -3.79824217034879083599e+01
  -4.05040766768750444271e+01
  -3.99982782519119979270e+01
  -3.91808159390333869965e+01
  -3.82570393228084526527e+01
  -3.73040797387010982789e+01
  -3.63645741159114663787e+01
  -3.54651229354741630573e+01
  -3.46252915668470180321e+01
  -3.38637693570343145666e+01
  -3.32032263583436417775e+01
  -3.26743506729417561019e+01
  -3.23185005562874820839e+01
  -3.21868368379977312088e+01
  -3.23321855276461604944e+01
  -3.28625263740109829769e+01
  -3.37407475803540037873e+01
  -3.48002785544252120076e+01
  -3.58259563097740212356e+01
  -3.65074305571659678549e+01
  -3.66472347851061783786e+01
  -3.62397682595780139536e+01
  -3.54740412118555497045e+01
  -3.45749471835843351641e+01
  -3.36703973440208557122e+01
  -3.28424136530312011928e+01
  -3.20961838766441900361e+01
  -3.14086482956466852556e+01
  -3.07745235219283976846e+01
  -3.01871036122252078826e+01
  -2.96569670012637907064e+01
  -2.91723573734069177021e+01
  -2.87153560112800967374e+01
  -2.82819574520726249034e+01
  -2.78688569309874978330e+01
  -2.74939218501845843434e+01
  -2.71481768516125541169e+01
  -2.68150013892419067929e+01
  -2.64927790338961486327e+01
  -2.61801641408769150132e+01
  -2.58901021315578674376e+01
  -2.56165820582862764354e+01
  -2.53492460274466040460e+01
  -2.50873791812119470990e+01
  -2.48303729748773989172e+01
  -2.45867606814895047762e+01
  -2.43528218766891377811e+01
  -2.41223746638832139411e+01
  -2.38950297994038223237e+01
  -2.36704474777780085049e+01
  -2.34602877123082507183e+01
  -2.32595422888449192556e+01
  -2.30607606985950788214e+01
  -2.28637191467786067278e+01
  -2.26682185625798808815e+01
  -2.24849367251117371325e+01
  -2.23092174641313292227e+01
  -2.21347419514846492916e+01
  -2.19613656819390179464e+01
  -2.17889579800207897620e+01
  -2.16230382887128627090e+01
  -2.14608312702809591599e+01
