<Qucs Dataset 1.0.6>
<indep frequency 161>
  +2.00000000000000000000e+08
  +2.86250000000000000000e+08
  +3.72500000000000000000e+08
  +4.58750000000000000000e+08
  +5.45000000000000000000e+08
  +6.31250000000000000000e+08
  +7.17500000000000000000e+08
  +8.03750000000000000000e+08
  +8.90000000000000000000e+08
  +9.76250000000000000000e+08
  +1.06250000000000000000e+09
  +1.14875000000000000000e+09
  +1.23500000000000000000e+09
  +1.32125000000000000000e+09
  +1.40750000000000000000e+09
  +1.49375000000000000000e+09
  +1.58000000000000000000e+09
  +1.66625000000000000000e+09
  +1.75250000000000000000e+09
  +1.83875000000000000000e+09
  +1.92500000000000000000e+09
  +2.01125000000000000000e+09
  +2.09750000000000000000e+09
  +2.18375000000000000000e+09
  +2.27000000000000000000e+09
  +2.35625000000000000000e+09
  +2.44250000000000000000e+09
  +2.52875000000000000000e+09
  +2.61500000000000000000e+09
  +2.70125000000000000000e+09
  +2.78750000000000000000e+09
  +2.87375000000000000000e+09
  +2.96000000000000000000e+09
  +3.04625000000000000000e+09
  +3.13250000000000000000e+09
  +3.21875000000000000000e+09
  +3.30500000000000000000e+09
  +3.39125000000000000000e+09
  +3.47750000000000000000e+09
  +3.56375000000000000000e+09
  +3.65000000000000000000e+09
  +3.73625000000000000000e+09
  +3.82250000000000000000e+09
  +3.90875000000000000000e+09
  +3.99500000000000000000e+09
  +4.08125000000000000000e+09
  +4.16750000000000000000e+09
  +4.25375000000000000000e+09
  +4.34000000000000000000e+09
  +4.42625000000000000000e+09
  +4.51250000000000000000e+09
  +4.59875000000000000000e+09
  +4.68500000000000000000e+09
  +4.77125000000000000000e+09
  +4.85750000000000000000e+09
  +4.94375000000000000000e+09
  +5.03000000000000000000e+09
  +5.11625000000000000000e+09
  +5.20250000000000000000e+09
  +5.28875000000000000000e+09
  +5.37500000000000000000e+09
  +5.46125000000000000000e+09
  +5.54750000000000000000e+09
  +5.63375000000000000000e+09
  +5.72000000000000000000e+09
  +5.80625000000000000000e+09
  +5.89250000000000000000e+09
  +5.97875000000000000000e+09
  +6.06500000000000000000e+09
  +6.15125000000000000000e+09
  +6.23750000000000000000e+09
  +6.32375000000000000000e+09
  +6.41000000000000000000e+09
  +6.49625000000000000000e+09
  +6.58250000000000000000e+09
  +6.66875000000000000000e+09
  +6.75500000000000000000e+09
  +6.84125000000000000000e+09
  +6.92750000000000000000e+09
  +7.01375000000000000000e+09
  +7.10000000000000000000e+09
  +7.18625000000000000000e+09
  +7.27250000000000000000e+09
  +7.35875000000000000000e+09
  +7.44500000000000000000e+09
  +7.53125000000000000000e+09
  +7.61750000000000000000e+09
  +7.70375000000000000000e+09
  +7.79000000000000000000e+09
  +7.87625000000000000000e+09
  +7.96250000000000000000e+09
  +8.04875000000000000000e+09
  +8.13500000000000000000e+09
  +8.22125000000000000000e+09
  +8.30750000000000000000e+09
  +8.39375000000000000000e+09
  +8.48000000000000000000e+09
  +8.56625000000000000000e+09
  +8.65250000000000000000e+09
  +8.73875000000000000000e+09
  +8.82500000000000000000e+09
  +8.91125000000000000000e+09
  +8.99750000000000000000e+09
  +9.08375000000000000000e+09
  +9.17000000000000000000e+09
  +9.25625000000000000000e+09
  +9.34250000000000000000e+09
  +9.42875000000000000000e+09
  +9.51500000000000000000e+09
  +9.60125000000000000000e+09
  +9.68750000000000000000e+09
  +9.77375000000000000000e+09
  +9.86000000000000000000e+09
  +9.94625000000000000000e+09
  +1.00325000000000000000e+10
  +1.01187500000000000000e+10
  +1.02050000000000000000e+10
  +1.02912500000000000000e+10
  +1.03775000000000000000e+10
  +1.04637500000000000000e+10
  +1.05500000000000000000e+10
  +1.06362500000000000000e+10
  +1.07225000000000000000e+10
  +1.08087500000000000000e+10
  +1.08950000000000000000e+10
  +1.09812500000000000000e+10
  +1.10675000000000000000e+10
  +1.11537500000000000000e+10
  +1.12400000000000000000e+10
  +1.13262500000000000000e+10
  +1.14125000000000000000e+10
  +1.14987500000000000000e+10
  +1.15850000000000000000e+10
  +1.16712500000000000000e+10
  +1.17575000000000000000e+10
  +1.18437500000000000000e+10
  +1.19300000000000000000e+10
  +1.20162500000000000000e+10
  +1.21025000000000000000e+10
  +1.21887500000000000000e+10
  +1.22750000000000000000e+10
  +1.23612500000000000000e+10
  +1.24475000000000000000e+10
  +1.25337500000000000000e+10
  +1.26200000000000000000e+10
  +1.27062500000000000000e+10
  +1.27925000000000000000e+10
  +1.28787500000000000000e+10
  +1.29650000000000000000e+10
  +1.30512500000000000000e+10
  +1.31375000000000000000e+10
  +1.32237500000000000000e+10
  +1.33100000000000000000e+10
  +1.33962500000000000000e+10
  +1.34825000000000000000e+10
  +1.35687500000000000000e+10
  +1.36550000000000000000e+10
  +1.37412500000000000000e+10
  +1.38275000000000000000e+10
  +1.39137500000000000000e+10
  +1.40000000000000000000e+10
</indep>
<dep dBS11 frequency>
  -3.34492394323040787008e-01
  -5.22675639088593269044e-01
  -6.51341237946985063267e-01
  -7.60902410351906199892e-01
  -8.41251932497577459280e-01
  -8.94875192683883158296e-01
  -9.37611554464757301908e-01
  -9.72217425113830469030e-01
  -1.01472686664520028721e+00
  -1.04722914562806690419e+00
  -1.06857340761109420590e+00
  -1.08328509611344792063e+00
  -1.09652695025826063535e+00
  -1.10895402629076378354e+00
  -1.11663500591712350207e+00
  -1.12872859330893593466e+00
  -1.13969551018491310757e+00
  -1.14745638159509244502e+00
  -1.15200959805657521251e+00
  -1.15357022422186350497e+00
  -1.15224991948082577942e+00
  -1.14785911961168896056e+00
  -1.14695350280104091389e+00
  -1.14874015332541556944e+00
  -1.14470339634512274785e+00
  -1.14605850233772765812e+00
  -1.14947651320377119966e+00
  -1.14962647237031512226e+00
  -1.14643930322152964862e+00
  -1.14338700678284510559e+00
  -1.14110251173338839159e+00
  -1.14116036490831329608e+00
  -1.14028486373562198963e+00
  -1.13729679742854528079e+00
  -1.13466322655275497766e+00
  -1.13425637160073677911e+00
  -1.13158601417052695481e+00
  -1.12854322671259676980e+00
  -1.12038975014624253568e+00
  -1.11272477805936720330e+00
  -1.10610026657353377466e+00
  -1.10067605386506617293e+00
  -1.09682745705929751701e+00
  -1.09454580247039823249e+00
  -1.09051347254657304831e+00
  -1.08766041239015587294e+00
  -1.08196128059198937166e+00
  -1.07562748800197582888e+00
  -1.06966624372286034372e+00
  -1.06438968002207956509e+00
  -1.06003541131628375993e+00
  -1.05612716722828814397e+00
  -1.05265231105773016118e+00
  -1.04746534715711003827e+00
  -1.04177483804228376840e+00
  -1.03580552294966499183e+00
  -1.02950321658652210743e+00
  -1.02309223409443550423e+00
  -1.01733271674356196002e+00
  -1.01011638296660577474e+00
  -1.00488615630683097990e+00
  -1.00022719054079134438e+00
  -9.95063331932357630905e-01
  -9.90030705819048839622e-01
  -9.85329520293124927477e-01
  -9.78511458310050707965e-01
  -9.73149946707998592110e-01
  -9.67386507231148273789e-01
  -9.61771965449523591474e-01
  -9.55316694487960083038e-01
  -9.48782920427310272338e-01
  -9.42629907452104065513e-01
  -9.35794127837561995342e-01
  -9.29956797690531189460e-01
  -9.25457707253972694517e-01
  -9.19787357119494330959e-01
  -9.13796401627975485304e-01
  -9.07491098177939381486e-01
  -9.01181555316463489547e-01
  -8.95621052287418506488e-01
  -8.90430286353411037936e-01
  -8.84457829839420672791e-01
  -8.79143878024059466370e-01
  -8.74134269190073087685e-01
  -8.68544055071492682174e-01
  -8.62437898302219840829e-01
  -8.56552291366831086705e-01
  -8.50904979251002724361e-01
  -8.45922598987900453693e-01
  -8.38854788601493872591e-01
  -8.31188010408710931110e-01
  -8.25516991987018111665e-01
  -8.20666459815425630708e-01
  -8.14889246916852494351e-01
  -8.09939640960881113152e-01
  -8.05910093483976797124e-01
  -8.01181963362007532048e-01
  -7.95855880438486207318e-01
  -7.89985182116333284341e-01
  -7.83588633055338767974e-01
  -7.77081754481998121520e-01
  -7.71341196320320721114e-01
  -7.66802396579787770570e-01
  -7.62101148072033662828e-01
  -7.57435403877059432176e-01
  -7.51970397151707881100e-01
  -7.46848918711443543472e-01
  -7.42828889514531964799e-01
  -7.39255520343994332322e-01
  -7.34868895467725602444e-01
  -7.30237000221069076922e-01
  -7.24707294580364314029e-01
  -7.19257697346860735976e-01
  -7.14194471290824250964e-01
  -7.09965608305801576527e-01
  -7.06697808192544352224e-01
  -7.03426699813963773877e-01
  -6.99848566131219373965e-01
  -6.95927609399914048893e-01
  -6.91444547561399280866e-01
  -6.86644718709167989346e-01
  -6.81756115323525202498e-01
  -6.76760344036847261151e-01
  -6.71446080962091573774e-01
  -6.66605396560621565882e-01
  -6.65600810281493204812e-01
  -6.62651723960287597492e-01
  -6.58929875223210004265e-01
  -6.54245800334037008739e-01
  -6.50235028322959762725e-01
  -6.49741982828524244908e-01
  -6.47754124323588698076e-01
  -6.43506805355197331053e-01
  -6.39285089451077759293e-01
  -6.35352825427048517604e-01
  -6.33026023218873579168e-01
  -6.32204302951465124671e-01
  -6.31193775088360276015e-01
  -6.28679910465461677660e-01
  -6.25861562154220840704e-01
  -6.22353997542378634122e-01
  -6.18443992228033923020e-01
  -6.14820549306039465520e-01
  -6.11587220260892738821e-01
  -6.08858055621319227413e-01
  -6.07410566963547005059e-01
  -6.05191941058717430835e-01
  -6.03666725593419051243e-01
  -6.02176921577573853739e-01
  -6.01021525487779983976e-01
  -6.00174110503587932008e-01
  -5.99501626322347158649e-01
  -5.98805547874469157321e-01
  -5.96047142662537776658e-01
  -5.93612653403937762242e-01
  -5.90552625961698107737e-01
  -5.87831652440719332198e-01
  -5.86735256492900369985e-01
  -5.86384196419527548017e-01
  -5.84512322836356457145e-01
  -5.82583536053536299448e-01
</dep>
<dep dBS21 frequency>
  +2.58885908840236922401e+01
  +2.52629393114315590196e+01
  +2.45965617574396766543e+01
  +2.38854894436800506696e+01
  +2.31565667824193397450e+01
  +2.24364057184758109997e+01
  +2.17312801873227989802e+01
  +2.10582170379188440279e+01
  +2.04141374011220513296e+01
  +1.97939153219632366643e+01
  +1.92037066667050453361e+01
  +1.86442175240363816613e+01
  +1.81065560440134447617e+01
  +1.75881935802402331603e+01
  +1.71066692269960860528e+01
  +1.66395838126539565849e+01
  +1.61974696269325626474e+01
  +1.57676721905190717621e+01
  +1.53556627179102598291e+01
  +1.49593380532683681849e+01
  +1.45763615287647105845e+01
  +1.42118398505933463127e+01
  +1.38593280886581879940e+01
  +1.35204102715614933317e+01
  +1.31921594115767781830e+01
  +1.28693902447708463654e+01
  +1.25563019382652285572e+01
  +1.22554409992680994890e+01
  +1.19631895748162371262e+01
  +1.16758638173086577439e+01
  +1.13953579701265184099e+01
  +1.11292307998424000459e+01
  +1.08654430337862013545e+01
  +1.06053773178303938352e+01
  +1.03518938514990015420e+01
  +1.01046385985460922541e+01
  +9.86016575209256274093e+00
  +9.62055623356034317339e+00
  +9.38972398450854406349e+00
  +9.16128743642514287160e+00
  +8.93663917928724238493e+00
  +8.71787879330990378435e+00
  +8.50533149905021446102e+00
  +8.29628572835281552500e+00
  +8.08930355307560233769e+00
  +7.88434151332432442416e+00
  +7.68624610682253983640e+00
  +7.48949989380868430544e+00
  +7.29468890844268358364e+00
  +7.10373467438281647190e+00
  +6.91530459208645531533e+00
  +6.72569334892525905190e+00
  +6.54188519099658361000e+00
  +6.35910581785871098504e+00
  +6.18161641889453505883e+00
  +6.00482646628658223165e+00
  +5.82949119356838352246e+00
  +5.65950789155697009392e+00
  +5.48572217798741590400e+00
  +5.32125349193999497288e+00
  +5.15622484956846882653e+00
  +4.99122085815426608235e+00
  +4.82915887744230420964e+00
  +4.66851909584414936916e+00
  +4.50724614197265616156e+00
  +4.34878309238894189548e+00
  +4.19271166324720034879e+00
  +4.03955747669931497512e+00
  +3.88444881072293357605e+00
  +3.73072284968100209568e+00
  +3.57986339634987649205e+00
  +3.43223049608955710355e+00
  +3.28770661747802783736e+00
  +3.14024749896132959748e+00
  +3.00022020168233893855e+00
  +2.85726786684884093148e+00
  +2.71748973183800712761e+00
  +2.57852331039451954098e+00
  +2.43872984158613315131e+00
  +2.30189795526744589438e+00
  +2.16879415936819608390e+00
  +2.02977084480496827723e+00
  +1.89494794470049554569e+00
  +1.76287788176549176100e+00
  +1.63299370386845832392e+00
  +1.50423310425326706152e+00
  +1.37572876078111727693e+00
  +1.24830308935588130126e+00
  +1.11367818047011657434e+00
  +9.90407842089070289404e-01
  +8.63370553745775648480e-01
  +7.38093365035730086809e-01
  +6.16333314186388925293e-01
  +4.93835728826136577396e-01
  +3.67417828231315912735e-01
  +2.49323074840169106592e-01
  +1.27963684196387733616e-01
  +7.31072866844639270012e-03
  -1.11809010004991507548e-01
  -2.31317505933087252945e-01
  -3.50207246139105921046e-01
  -4.64406531468119998518e-01
  -5.82012665108942339742e-01
  -6.95259600311973313680e-01
  -8.05841780371526761328e-01
  -9.17087338433259069426e-01
  -1.02816967235746492548e+00
  -1.13874890366049741353e+00
  -1.25057081056589813883e+00
  -1.36346906056115191319e+00
  -1.47830669359083533010e+00
  -1.58108827645610627854e+00
  -1.68659768354526562462e+00
  -1.79448716175404565654e+00
  -1.90152064044771984541e+00
  -2.00683611203118017485e+00
  -2.11275639698898887175e+00
  -2.21582079027030776075e+00
  -2.32084438470016873879e+00
  -2.42435737182570587578e+00
  -2.52721980262766754421e+00
  -2.62862795630318135665e+00
  -2.72926728133449492120e+00
  -2.83298217657316664386e+00
  -2.93124089427534650909e+00
  -3.03303341998776332389e+00
  -3.13722588289874515510e+00
  -3.23503485501465837260e+00
  -3.32935454922844886738e+00
  -3.42117737022302392802e+00
  -3.50822165181425660307e+00
  -3.61390161869225012836e+00
  -3.71091476669789077647e+00
  -3.80509691537863803390e+00
  -3.89975775641031363605e+00
  -3.99315661795665821643e+00
  -4.08443610638920695521e+00
  -4.17556617567702659244e+00
  -4.26927131345278887409e+00
  -4.36087527411372910535e+00
  -4.45145854874592927786e+00
  -4.54653555378897422656e+00
  -4.63880253428149202932e+00
  -4.72809412706703824369e+00
  -4.81781179351945709755e+00
  -4.90382349481413815084e+00
  -4.99318027130489916487e+00
  -5.08140471936597482028e+00
  -5.16941348614553763952e+00
  -5.25704925615792006965e+00
  -5.34396679752046566136e+00
  -5.42972641693810320618e+00
  -5.51421600774785147792e+00
  -5.59888476380494193307e+00
  -5.68894176188040212594e+00
  -5.77541873959596152588e+00
  -5.85991677545795575099e+00
  -5.94089151683746230503e+00
  -6.02072847148907541737e+00
  -6.10438687546365521541e+00
  -6.18403129981912069724e+00
</dep>
<dep dBS12 frequency>
  -3.58323093510461134770e+01
  -3.33864504189347996999e+01
  -3.18280497963817268214e+01
  -3.07764703037568523314e+01
  -3.00283781606248645346e+01
  -2.94862266559698973367e+01
  -2.91002456276425220949e+01
  -2.87971397893195977247e+01
  -2.85931506970106568133e+01
  -2.84296615636973406538e+01
  -2.82994360415670769271e+01
  -2.81916806309202598868e+01
  -2.81112420367469013627e+01
  -2.80569798115555535389e+01
  -2.80076818058531920030e+01
  -2.79814372658621302037e+01
  -2.79617444311666965007e+01
  -2.79523700990010581791e+01
  -2.79458301378055686826e+01
  -2.79478039154577544423e+01
  -2.79600884626370138619e+01
  -2.79685388294231316308e+01
  -2.79657587429251250910e+01
  -2.79858117664352761267e+01
  -2.80081162326034807108e+01
  -2.80411925579604606185e+01
  -2.80805927634570053897e+01
  -2.81218510330995528079e+01
  -2.81621184477775230448e+01
  -2.81883266500153837342e+01
  -2.82098756952448326274e+01
  -2.82423653869787507631e+01
  -2.82783423383923882000e+01
  -2.83198516813496539157e+01
  -2.83695552861768653941e+01
  -2.84253706579726781456e+01
  -2.84779330605139477939e+01
  -2.85216739305887401201e+01
  -2.85542286393137167977e+01
  -2.85966212557220416102e+01
  -2.86407292087195060049e+01
  -2.86887500553684944293e+01
  -2.87477354475188384697e+01
  -2.88162428612311352083e+01
  -2.88860676704164411888e+01
  -2.89595065082254308209e+01
  -2.90280807460162080247e+01
  -2.90897475434478600675e+01
  -2.91487653653077281035e+01
  -2.92086261977614753960e+01
  -2.92697362711120909751e+01
  -2.93379380612859996802e+01
  -2.94126909949249011333e+01
  -2.94857227046929040171e+01
  -2.95601446732703863063e+01
  -2.96360958020148004266e+01
  -2.97110570963209426054e+01
  -2.97845016039990362344e+01
  -2.98642173348459429860e+01
  -2.99304966098856972678e+01
  -3.00036300882992712502e+01
  -3.00761532553453037053e+01
  -3.01569297788489762979e+01
  -3.02441407127188988113e+01
  -3.03287009828151141733e+01
  -3.04093760172599623104e+01
  -3.04905464199087283816e+01
  -3.05695652799892982898e+01
  -3.06413211630226633986e+01
  -3.07061085774073561083e+01
  -3.07718846716980820588e+01
  -3.08444068121713641517e+01
  -3.09219680361221165299e+01
  -3.10121015113955103004e+01
  -3.10965112259648037707e+01
  -3.11744589821984128264e+01
  -3.12524393786750351865e+01
  -3.13344389707239301401e+01
  -3.14161292115243568901e+01
  -3.14880629633293587233e+01
  -3.15492713039615146897e+01
  -3.16223870250948699834e+01
  -3.16913006907604994922e+01
  -3.17551472231665883328e+01
  -3.18178542952293774704e+01
  -3.18813873861013910016e+01
  -3.19412905838006331294e+01
  -3.19874251254126491517e+01
  -3.20499033233985102243e+01
  -3.20993540762876889971e+01
  -3.21578919140107615249e+01
  -3.22043968846434651709e+01
  -3.22431001127256280370e+01
  -3.22857145954443680580e+01
  -3.23196063127299240136e+01
  -3.23453286660789345319e+01
  -3.23712784115498948267e+01
  -3.23809626609928074004e+01
  -3.23949478027006065872e+01
  -3.24083639231888298582e+01
  -3.24110746146581547578e+01
  -3.24071662548579269014e+01
  -3.23996798459110948443e+01
  -3.23991389698409619768e+01
  -3.23911800559683200618e+01
  -3.23783605977676032239e+01
  -3.23666747486093484554e+01
  -3.23575234484322180606e+01
  -3.23512394550201349830e+01
  -3.23608308474658130649e+01
  -3.22955780164518131414e+01
  -3.21958269771195446651e+01
  -3.21403907206442767119e+01
  -3.21192771201332618602e+01
  -3.20980044956004704204e+01
  -3.20610826228350376255e+01
  -3.20312656508573923020e+01
  -3.19887433262965643621e+01
  -3.19405191307140512436e+01
  -3.19068677385027186233e+01
  -3.18746540208057318466e+01
  -3.18343409618003825301e+01
  -3.17835964347201453961e+01
  -3.17239933529475166551e+01
  -3.16690524635853840607e+01
  -3.16101738507468290607e+01
  -3.15575992937061222676e+01
  -3.15035159329533556161e+01
  -3.14438941315731383952e+01
  -3.13771559037953124971e+01
  -3.13082365760685554790e+01
  -3.12670308574839737048e+01
  -3.12034534550379234474e+01
  -3.11415434585005925783e+01
  -3.10790966615293449138e+01
  -3.10159973632029775104e+01
  -3.09455657172231504148e+01
  -3.08560355641489572065e+01
  -3.07421948045677204675e+01
  -3.06459520485357685970e+01
  -3.05545530394465103541e+01
  -3.04703640457708360145e+01
  -3.03858253955626196330e+01
  -3.03044277128606438509e+01
  -3.02327713978615335577e+01
  -3.01653232080854358799e+01
  -3.00979527793334256103e+01
  -3.00435252481280947734e+01
  -2.99974634038749030651e+01
  -2.99486192046708126213e+01
  -2.98899924169533690588e+01
  -2.98179300753323630602e+01
  -2.97332374838240873771e+01
  -2.96569976281985567823e+01
  -2.95860982714868434584e+01
  -2.95030370050897445822e+01
  -2.94261232081999324350e+01
  -2.93618492872673897409e+01
  -2.93095555754684831129e+01
  -2.92662495726933755691e+01
  -2.92253383604872780666e+01
</dep>
<dep S[1,1] frequency>
  +7.16803252700000004261e-01-j6.41922652720000042059e-01
  +5.08499229324500090499e-01-j7.92488578706875168578e-01
  +3.03824923560250037546e-01-j8.76594722271499926514e-01
  +1.17981014959962493549e-01-j9.08496590704125028815e-01
  -4.23916041869499826689e-02-j9.06699249149999886299e-01
  -1.77859343591874941026e-01-j8.84396009149999939858e-01
  -2.91464678200749949255e-01-j8.49040535093750103890e-01
  -3.82940475643374966808e-01-j8.07949609309999927653e-01
