<Qucs Dataset 1.0.6>
<indep frequency 200>
  +1.00000000000000000000e+07
  +3.00502512562814056873e+07
  +5.01005025125628113747e+07
  +7.01507537688442170620e+07
  +9.02010050251256227493e+07
  +1.10251256281407028437e+08
  +1.30301507537688434124e+08
  +1.50351758793969839811e+08
  +1.70402010050251245499e+08
  +1.90452261306532651186e+08
  +2.10502512562814056873e+08
  +2.30552763819095462561e+08
  +2.50603015075376868248e+08
  +2.70653266331658244133e+08
  +2.90703517587939679623e+08
  +3.10753768844221115112e+08
  +3.30804020100502490997e+08
  +3.50854271356783866882e+08
  +3.70904522613065302372e+08
  +3.90954773869346737862e+08
  +4.11005025125628113747e+08
  +4.31055276381909489632e+08
  +4.51105527638190925121e+08
  +4.71155778894472360611e+08
  +4.91206030150753736496e+08
  +5.11256281407035112381e+08
  +5.31306532663316547871e+08
  +5.51356783919597983360e+08
  +5.71407035175879359245e+08
  +5.91457286432160735130e+08
  +6.11507537688442230225e+08
  +6.31557788944723606110e+08
  +6.51608040201004981995e+08
  +6.71658291457286357880e+08
  +6.91708542713567733765e+08
  +7.11758793969849228859e+08
  +7.31809045226130604744e+08
  +7.51859296482411980629e+08
  +7.71909547738693475723e+08
  +7.91959798994974851608e+08
  +8.12010050251256227493e+08
  +8.32060301507537603378e+08
  +8.52110552763818979263e+08
  +8.72160804020100474358e+08
  +8.92211055276381850243e+08
  +9.12261306532663226128e+08
  +9.32311557788944721222e+08
  +9.52361809045226097107e+08
  +9.72412060301507472992e+08
  +9.92462311557788848877e+08
  +1.01251256281407022476e+09
  +1.03256281407035171986e+09
  +1.05261306532663309574e+09
  +1.07266331658291447163e+09
  +1.09271356783919596672e+09
  +1.11276381909547734261e+09
  +1.13281407035175871849e+09
  +1.15286432160804009438e+09
  +1.17291457286432147026e+09
  +1.19296482412060284615e+09
  +1.21301507537688446045e+09
  +1.23306532663316583633e+09
  +1.25311557788944721222e+09
  +1.27316582914572858810e+09
  +1.29321608040200996399e+09
  +1.31326633165829133987e+09
  +1.33331658291457271576e+09
  +1.35336683417085409164e+09
  +1.37341708542713546753e+09
  +1.39346733668341708183e+09
  +1.41351758793969845772e+09
  +1.43356783919597983360e+09
  +1.45361809045226120949e+09
  +1.47366834170854258537e+09
  +1.49371859296482396126e+09
  +1.51376884422110533714e+09
  +1.53381909547738695145e+09
  +1.55386934673366832733e+09
  +1.57391959798994970322e+09
  +1.59396984924623107910e+09
  +1.61402010050251245499e+09
  +1.63407035175879383087e+09
  +1.65412060301507520676e+09
  +1.67417085427135658264e+09
  +1.69422110552763795853e+09
  +1.71427135678391957283e+09
  +1.73432160804020094872e+09
  +1.75437185929648232460e+09
  +1.77442211055276370049e+09
  +1.79447236180904507637e+09
  +1.81452261306532645226e+09
  +1.83457286432160782814e+09
  +1.85462311557788944244e+09
  +1.87467336683417081833e+09
  +1.89472361809045219421e+09
  +1.91477386934673357010e+09
  +1.93482412060301494598e+09
  +1.95487437185929632187e+09
  +1.97492462311557769775e+09
  +1.99497487437185907364e+09
  +2.01502512562814044952e+09
  +2.03507537688442206383e+09
  +2.05512562814070343971e+09
  +2.07517587939698481560e+09
  +2.09522613065326619148e+09
  +2.11527638190954756737e+09
  +2.13532663316582894325e+09
  +2.15537688442211055756e+09
  +2.17542713567839193344e+09
  +2.19547738693467330933e+09
  +2.21552763819095468521e+09
  +2.23557788944723606110e+09
  +2.25562814070351743698e+09
  +2.27567839195979881287e+09
  +2.29572864321608018875e+09
  +2.31577889447236156464e+09
  +2.33582914572864294052e+09
  +2.35587939698492431641e+09
  +2.37592964824120569229e+09
  +2.39597989949748706818e+09
  +2.41603015075376892090e+09
  +2.43608040201005029678e+09
  +2.45613065326633167267e+09
  +2.47618090452261304855e+09
  +2.49623115577889442444e+09
  +2.51628140703517580032e+09
  +2.53633165829145717621e+09
  +2.55638190954773855209e+09
  +2.57643216080401992798e+09
  +2.59648241206030130386e+09
  +2.61653266331658267975e+09
  +2.63658291457286405563e+09
  +2.65663316582914543152e+09
  +2.67668341708542680740e+09
  +2.69673366834170818329e+09
  +2.71678391959798955917e+09
  +2.73683417085427093506e+09
  +2.75688442211055278778e+09
  +2.77693467336683416367e+09
  +2.79698492462311553955e+09
  +2.81703517587939691544e+09
  +2.83708542713567829132e+09
  +2.85713567839195966721e+09
  +2.87718592964824104309e+09
  +2.89723618090452241898e+09
  +2.91728643216080379486e+09
  +2.93733668341708517075e+09
  +2.95738693467336654663e+09
  +2.97743718592964792252e+09
  +2.99748743718592929840e+09
  +3.01753768844221067429e+09
  +3.03758793969849205017e+09
  +3.05763819095477390289e+09
  +3.07768844221105527878e+09
  +3.09773869346733665466e+09
  +3.11778894472361803055e+09
  +3.13783919597989940643e+09
  +3.15788944723618078232e+09
  +3.17793969849246215820e+09
  +3.19798994974874353409e+09
  +3.21804020100502490997e+09
  +3.23809045226130628586e+09
  +3.25814070351758766174e+09
  +3.27819095477386903763e+09
  +3.29824120603015041351e+09
  +3.31829145728643178940e+09
  +3.33834170854271316528e+09
  +3.35839195979899454117e+09
  +3.37844221105527591705e+09
  +3.39849246231155776978e+09
  +3.41854271356783914566e+09
  +3.43859296482412052155e+09
  +3.45864321608040189743e+09
  +3.47869346733668327332e+09
  +3.49874371859296464920e+09
  +3.51879396984924602509e+09
  +3.53884422110552740097e+09
  +3.55889447236180877686e+09
  +3.57894472361809015274e+09
  +3.59899497487437152863e+09
  +3.61904522613065290451e+09
  +3.63909547738693428040e+09
  +3.65914572864321565628e+09
  +3.67919597989949703217e+09
  +3.69924623115577888489e+09
  +3.71929648241206026077e+09
  +3.73934673366834163666e+09
  +3.75939698492462301254e+09
  +3.77944723618090438843e+09
  +3.79949748743718576431e+09
  +3.81954773869346714020e+09
  +3.83959798994974851608e+09
  +3.85964824120602989197e+09
  +3.87969849246231126785e+09
  +3.89974874371859264374e+09
  +3.91979899497487401962e+09
  +3.93984924623115539551e+09
  +3.95989949748743677139e+09
  +3.97994974874371814728e+09
  +3.99999999999999952316e+09
</indep>
<dep dBS11 frequency>
  +1.61769092141110903960e-01
  +1.91073464725314612345e-01
  +2.78990756759327940273e-01
  +3.87410873595556426441e-01
  +5.22237391787526483711e-01
  +6.86199875643827672533e-01
  +8.80716215784744238526e-01
  +1.10574050341310670120e+00
  +1.35882488367746123714e+00
  +1.63347535187193826367e+00
  +1.91672916304991836078e+00
  +2.18612691646034296156e+00
  +2.40707505121732889819e+00
  +2.53314635851681391188e+00
  +2.51321300756025811651e+00
  +2.24538379951926669875e+00
  +1.72225665407917860605e+00
  +1.02868409910365832260e+00
  +2.23497303413514092352e-01
  -6.29066531430124031843e-01
  -1.52232701489862765065e+00
  -2.40924883416400703595e+00
  -3.22544321975608561104e+00
  -3.95697900034623373244e+00
  -4.59796389656211967889e+00
  -5.17177740617320491623e+00
  -5.67915644609624958861e+00
  -6.10846289179729406982e+00
  -6.46720855305908237654e+00
  -6.76341786089230367907e+00
  -7.02455927448652595046e+00
  -7.25365033579462359370e+00
  -7.44329410372750288616e+00
  -7.59966629757677658574e+00
  -7.72804924329374465231e+00
  -7.83465063715414267165e+00
  -7.92328190678556776305e+00
  -7.99632521960840492170e+00
  -8.05667481789363471023e+00
  -8.10663819134274277189e+00
  -8.14379116481706333275e+00
  -8.17153389304095689738e+00
  -8.19423095559942815669e+00
  -8.21299193497063662051e+00
  -8.22864814337052230542e+00
  -8.24006585834629667886e+00
  -8.24917847860269404237e+00
  -8.25779129754213059300e+00
  -8.26629022889857978384e+00
  -8.27494042539198915165e+00
  -8.27775197722899136465e+00
  -8.27767116031721172931e+00
  -8.27865456182268211194e+00
  -8.28081215666703585043e+00
  -8.28419768882289275780e+00
  -8.28152935844575566193e+00
  -8.27621958920985534292e+00
  -8.27252788438605080046e+00
  -8.27046542288167785273e+00
  -8.27001543280947970516e+00
  -8.26414336207840349857e+00
  -8.25628174144266857581e+00
  -8.25023156544209435026e+00
  -8.24594217484422742359e+00
  -8.24334657496059541870e+00
  -8.23487566549683513983e+00
  -8.22428144364939583966e+00
  -8.21537919309196240647e+00
  -8.20811490209282546004e+00
  -8.20242571151167965127e+00
  -8.19290698738844369586e+00
  -8.18249306909230611495e+00
  -8.17376143375860308993e+00
  -8.16666112359562390566e+00
  -8.16113607904632765155e+00
  -8.15120922391054669731e+00
  -8.14014760854567320791e+00
  -8.13062206010619092922e+00
  -8.12258215439160480287e+00
  -8.11597421037282629186e+00
  -8.10688931389509548353e+00
  -8.09763018618903629431e+00
  -8.08984155385035563768e+00
  -8.08348231632557734372e+00
  -8.07850954780587215964e+00
  -8.06624178977253336598e+00
  -8.05168152034216433321e+00
  -8.03826208837925193507e+00
  -8.02593317071111123084e+00
  -8.01464269604577239647e+00
  -8.00499175057516154652e+00
  -7.99673800414135182990e+00
  -7.98962977103134974755e+00
  -7.98363060907413846223e+00
  -7.97870292010409265515e+00
  -7.96869382226926425972e+00
  -7.95749625240563673856e+00
  -7.94726245949523235623e+00
  -7.93796093465625141050e+00
  -7.92955941145405596160e+00
  -7.91754713473332483176e+00
  -7.90488636309874870278e+00
  -7.89304466259524328819e+00
  -7.88198927255740233733e+00
  -7.87168665051781246689e+00
  -7.85884732378730443969e+00
  -7.84575457838482037687e+00
  -7.83340859827855062747e+00
  -7.82178167482083175344e+00
  -7.81084557329437068063e+00
  -7.79943458523556731876e+00
  -7.78836861135377134246e+00
  -7.77795846024614601077e+00
  -7.76817805969242058950e+00
  -7.75900072711972477180e+00
  -7.74697946833672901334e+00
  -7.73467648822284736809e+00
  -7.72300596961296914600e+00
  -7.71194495581579797516e+00
  -7.70147005422752606307e+00
  -7.68812135552291220364e+00
  -7.67447977918547508125e+00
  -7.66139031170334483534e+00
  -7.64883287026349734106e+00
  -7.63678708976399356345e+00
  -7.62158822568469496161e+00
  -7.60601462797251137715e+00
  -7.59089001929540962976e+00
  -7.57619457638068372063e+00
  -7.56190820248934780778e+00
  -7.54565469579193770500e+00
  -7.52927205481872086068e+00
  -7.51324108964911019370e+00
  -7.49754066497288285120e+00
  -7.48214928565763681689e+00
  -7.46827092246421564425e+00
  -7.45499787081401521505e+00
  -7.44208385369891800565e+00
  -7.42951221333314570927e+00
  -7.41726601741408497759e+00
  -7.40194179079125369469e+00
  -7.38633607276898640492e+00
  -7.37103495129920904816e+00
  -7.35602289303074474702e+00
  -7.34128414391243389048e+00
  -7.32589436948731353993e+00
  -7.31064013178447069663e+00
  -7.29565511981907732775e+00
  -7.28092475648607884153e+00
  -7.26643425081956095823e+00
  -7.25055517958443651594e+00
  -7.23467468190765039537e+00
  -7.21901126110728519336e+00
  -7.20355079340816750744e+00
  -7.18827893853181709716e+00
  -7.17180732172777801736e+00
  -7.15537536699938225837e+00
  -7.13914849659167849438e+00
  -7.12311414730665060091e+00
  -7.10725958555448400489e+00
  -7.09091314743993983427e+00
  -7.07468185593344323081e+00
  -7.05862973753754019413e+00
  -7.04274552374949713851e+00
  -7.02701780144680299145e+00
  -7.01003182192267892958e+00
  -6.99308153870919912976e+00
  -6.97629375297846276993e+00
  -6.95965859620057525348e+00
  -6.94316609824798547379e+00
  -6.92498312897771217678e+00
  -6.90676514212085201905e+00
  -6.88865004504761735404e+00
  -6.87062779403508461229e+00
  -6.85268823343626465316e+00
  -6.83505844808624996034e+00
  -6.81754359019807854025e+00
  -6.80011988773551578902e+00
  -6.78277816360087371095e+00
  -6.76550912988672159543e+00
  -6.74705150904358319508e+00
  -6.72861957814828848257e+00
  -6.71027234307245024070e+00
  -6.69200172012811478339e+00
  -6.67379954166642797020e+00
  -6.65265746627908072242e+00
  -6.63145782771128011746e+00
  -6.61030998828793947553e+00
  -6.58920590539892714332e+00
  -6.56813746060964831486e+00
  -6.54680863164751247751e+00
  -6.52551712143785245246e+00
  -6.50426286877255765972e+00
  -6.48303801997141349034e+00
  -6.46183464211348379536e+00
  -6.44064345042116404016e+00
  -6.41947546286699655127e+00
  -6.39832336587288086349e+00
  -6.37717964498137668272e+00
  -6.35603670551529464916e+00
</dep>
<dep dBS21 frequency>
  +8.13644542023986616641e+00
  +7.89543251887099373221e+00
  +1.06420263066270432972e+01
  +1.30994174028194052539e+01
  +1.51988469815292859266e+01
  +1.70312067907709838721e+01
  +1.86740514834655861875e+01
  +2.01809898915633532113e+01
  +2.15863886789080652306e+01
  +2.29089972032698554472e+01
  +2.41530656489383268593e+01
  +2.53075725668120199430e+01
  +2.63450299635265778875e+01
  +2.72227390522361822889e+01
  +2.78906064281858157017e+01
  +2.82713982983113325531e+01
  +2.83582951573189916417e+01
  +2.82119727782368130420e+01
  +2.78864685957911930814e+01
  +2.74410668476437464847e+01
  +2.69121542717684718582e+01
  +2.63439730259123550127e+01
  +2.57725706726878733832e+01
  +2.52115076111432756534e+01
  +2.46684709975565823470e+01
  +2.41506317670869599112e+01
  +2.36579188807275926365e+01
  +2.31875311753873774023e+01
  +2.27387962821451807827e+01
  +2.23107712281993286751e+01
  +2.19055512214214402889e+01
  +2.15199935910881876566e+01
  +2.11502996063134638405e+01
  +2.07954252414046791841e+01
  +2.04544367336979320271e+01
  +2.01320506666179319666e+01
  +1.98248643540096267657e+01
  +1.95279924402063365108e+01
  +1.92408023677016295494e+01
  +1.89627402869261985074e+01
  +1.86967037638555240164e+01
  +1.84405622987688673220e+01
  +1.81915010657071363198e+01
  +1.79491608769374160204e+01
  +1.77132288452385751043e+01
  +1.74868207069684480359e+01
  +1.72678817457296460702e+01
  +1.70538758415900986165e+01
  +1.68445816132326378067e+01
  +1.66398044304296917062e+01
  +1.64434519413463746673e+01
  +1.62534494775273259393e+01
  +1.60671188449393191888e+01
  +1.58843227302062075523e+01
  +1.57049399191162830647e+01
  +1.55325885840515649505e+01
  +1.53653498486128476941e+01
  +1.52009492799673591179e+01
  +1.50392973524248176886e+01
  +1.48803146020417145223e+01
  +1.47251059490041686928e+01
  +1.45729297375542046211e+01
  +1.44230579919715111714e+01
  +1.42754339941032259986e+01
  +1.41300084186637509021e+01
  +1.39904290649254861023e+01
  +1.38547058578632675818e+01
  +1.37208783505142388748e+01
  +1.35889071924296445104e+01
  +1.34587578687595854632e+01
  +1.33317959846885099040e+01
  +1.32071253005360347288e+01
  +1.30840110051620364118e+01
  +1.29624241404791202825e+01
  +1.28423392151292468100e+01
  +1.27255109949777889256e+01
  +1.26108680112873230428e+01
  +1.24975614194544704105e+01
  +1.23855709326038425644e+01
  +1.22748788650694784508e+01
  +1.21666224367645554594e+01
  +1.20600165483054375670e+01
  +1.19545274246529267259e+01
  +1.18501385217469046296e+01
  +1.17468351925137977076e+01
  +1.16471821456836615027e+01
  +1.15496541215873591568e+01
  +1.14532006610143621828e+01
  +1.13578132575459420650e+01
  +1.12634850206408394513e+01
  +1.11700485330931691408e+01
  +1.10774711754051953250e+01
  +1.09857852688176329536e+01
  +1.08949826845628123806e+01
  +1.08050565241384166626e+01
  +1.07183159761460817805e+01
  +1.06332291218652308373e+01
  +1.05489567525240950374e+01
  +1.04654929795659690228e+01
  +1.03828328358345167715e+01
  +1.03018814262798148462e+01
  +1.02220113312910143577e+01
  +1.01429120874634453031e+01
  +1.00645807385703562886e+01
  +9.98701514974720083728e+00
  +9.91097461139324842350e+00
  +9.83587311954735099562e+00
  +9.76146168942233494192e+00
  +9.68773786412843662674e+00
  +9.61469983341761924578e+00
  +9.54257067755583676671e+00
  +9.47116154509176944032e+00
  +9.40040213701014337744e+00
  +9.33029168395684571635e+00
  +9.26083000934886868549e+00
  +9.19204996577868804764e+00
  +9.12387105001605647203e+00
  +9.05627676360559874524e+00
  +8.98926660090234186384e+00
  +8.92284055750361204673e+00
  +8.85801558212843787032e+00
  +8.79398546017964122257e+00
  +8.73048940096072101369e+00
  +8.66752684065987821782e+00
  +8.60509760672598389419e+00
  +8.54421146063404357562e+00
  +8.48407680194943480956e+00
  +8.42445820347477081214e+00
  +8.36535589710823401788e+00
  +8.30677045698867644319e+00
  +8.24909236720176153312e+00
  +8.19201089165142448678e+00
  +8.13544384347280846725e+00
  +8.07939274365827486690e+00
  +8.02385945143437062654e+00
  +7.96824377080436896392e+00
  +7.91297065815511757592e+00
  +7.85815264452579143040e+00
  +7.80379075719265991040e+00
  +7.74988630517447596446e+00
  +7.69708023679666553107e+00
  +7.64482233747174788618e+00
  +7.59299838113260427974e+00
  +7.54160958864682662295e+00
  +7.49065742247759214223e+00
  +7.44003327390649715767e+00
  +7.38980366963063772801e+00
  +7.33998545378277267304e+00
  +7.29058009041930521477e+00
  +7.24158926670693947614e+00
  +7.19326414469647978933e+00
  +7.14537430037899401469e+00
  +7.09788439077551291945e+00
  +7.05079622665881000643e+00
  +7.00411182569906731743e+00
  +6.95762841511879503997e+00
  +6.91149113529929604027e+00
  +6.86572543003978807974e+00
  +6.82033298759718764614e+00
  +6.77531567891871944198e+00
  +6.73065203451362492615e+00
  +6.68633528117422493153e+00
  +6.64236795594661089126e+00
  +6.59875168091013630800e+00
  +6.55548823928968094066e+00
  +6.51259707801457121690e+00
  +6.47003133195289947821e+00
  +6.42778907600461657523e+00
  +6.38587169491536599253e+00
  +6.34428071063481091585e+00
  +6.30365942554709324241e+00
  +6.26341442413413407309e+00
  +6.22349490366622770665e+00
  +6.18390257019889233447e+00
  +6.14463925876612382382e+00
  +6.10531478565503515910e+00
  +6.06627533611258407120e+00
  +6.02754814310531195076e+00
  +5.98913504305788890747e+00
  +5.95103799455793147644e+00
  +5.91307543855724571102e+00
  +5.87539484415502322179e+00
  +5.83800676351148073451e+00
  +5.80091289001216914301e+00
  +5.76411502519300622538e+00
  +5.72811461220525952598e+00
  +5.69242306988247293020e+00
  +5.65702241898436852807e+00
  +5.62191449068020254742e+00
  +5.58710121694607053655e+00
  +5.55220782033127768784e+00
  +5.51758959281101013516e+00
  +5.48325799729366814006e+00
  +5.44921508565873224939e+00
  +5.41546301192978862815e+00
  +5.38185361860631239495e+00
  +5.34852263275128514408e+00
  +5.31547395080650808552e+00
  +5.28270975130198738867e+00
  +5.25023231115901722887e+00
</dep>
<dep dBS12 frequency>
  -3.79662636662437762425e+01
  -4.04880356042204425648e+01
  -3.99804439903763579878e+01
  -3.91609257985659908741e+01
  -3.82347868442803147104e+01
  -3.72791185340095339029e+01
  -3.63366025049618528442e+01
  -3.54340524152713740591e+01
  -3.45915706339813624481e+01
  -3.38289838457378806424e+01
  -3.31711503537075245163e+01
  -3.26526229186526748549e+01
  -3.23208856434187268292e+01
  -3.22353070904394769514e+01
  -3.24566797199373553440e+01
  -3.30953759697688738584e+01
  -3.40993446289089945367e+01
  -3.52589064554193996059e+01
  -3.62834768295018648132e+01
  -3.68009329779186629139e+01
  -3.66673857422831659392e+01
  -3.60177661509103046455e+01
  -3.51086138803008367404e+01
  -3.41465086058451419149e+01
  -3.32246047948722420529e+01
  -3.24009201006948046597e+01
  -3.16680906196169900113e+01
  -3.09970613485602797255e+01
  -3.03796516088671566536e+01
  -2.98078761932289069136e+01
  -2.92919952564087502367e+01
  -2.88201581768468031441e+01
  -2.83743506633931907857e+01
  -2.79506595501275469928e+01
  -2.75459019827736000252e+01
  -2.71783527221700573762e+01
  -2.68390988289215037810e+01
  -2.65114379482815252231e+01
  -2.61938506101095747169e+01
  -2.58850757846546741803e+01
  -2.55983364186516517691e+01
  -2.53276436371943560744e+01
  -2.50625626431375323477e+01
  -2.48024243446344385688e+01
  -2.45466596665737881722e+01
  -2.43041916470685777085e+01
  -2.40712153934315331583e+01
  -2.38413536051782415370e+01
  -2.36142403905605213765e+01
  -2.33895561362531232419e+01
  -2.31792229025836888923e+01
  -2.29781697825130670765e+01
  -2.27788171793711704538e+01
  -2.25809533771132251445e+01
  -2.23843897972479339842e+01
  -2.22000674860160209789e+01
  -2.20232419188481785000e+01
  -2.18474599482782423365e+01
  -2.16725841634684393000e+01
  -2.14984900817391206829e+01
  -2.13307814535271020873e+01
  -2.11666621713511169389e+01
