<Qucs Dataset 1.0.6>
<indep frequency 200>
  +1.00000000000000000000e+06
  +3.11457286432160809636e+07
  +6.12914572864321619272e+07
  +9.14371859296482503414e+07
  +1.21582914572864323854e+08
  +1.51728643216080397367e+08
  +1.81874371859296500683e+08
  +2.12020100502512574196e+08
  +2.42165829145728647709e+08
  +2.72311557788944721222e+08
  +3.02457286432160794735e+08
  +3.32603015075376868248e+08
  +3.62748743718593001366e+08
  +3.92894472361809074879e+08
  +4.23040201005025148392e+08
  +4.53185929648241221905e+08
  +4.83331658291457295418e+08
  +5.13477386934673368931e+08
  +5.43623115577889442444e+08
  +5.73768844221105575562e+08
  +6.03914572864321589470e+08
  +6.34060301507537722588e+08
  +6.64206030150753736496e+08
  +6.94351758793969869614e+08
  +7.24497487437186002731e+08
  +7.54643216080402016640e+08
  +7.84788944723618149757e+08
  +8.14934673366834163666e+08
  +8.45080402010050296783e+08
  +8.75226130653266310692e+08
  +9.05371859296482443810e+08
  +9.35517587939698457718e+08
  +9.65663316582914590836e+08
  +9.95809045226130723953e+08
  +1.02595477386934673786e+09
  +1.05610050251256287098e+09
  +1.08624623115577888489e+09
  +1.11639195979899501801e+09
  +1.14653768844221115112e+09
  +1.17668341708542704582e+09
  +1.20682914572864317894e+09
  +1.23697487437185931206e+09
  +1.26712060301507544518e+09
  +1.29726633165829157829e+09
  +1.32741206030150747299e+09
  +1.35755778894472360611e+09
  +1.38770351758793973923e+09
  +1.41784924623115587234e+09
  +1.44799497487437200546e+09
  +1.47814070351758790016e+09
  +1.50828643216080403328e+09
  +1.53843216080402016640e+09
  +1.56857788944723629951e+09
  +1.59872361809045219421e+09
  +1.62886934673366832733e+09
  +1.65901507537688446045e+09
  +1.68916080402010059357e+09
  +1.71930653266331672668e+09
  +1.74945226130653262138e+09
  +1.77959798994974875450e+09
  +1.80974371859296488762e+09
  +1.83988944723618102074e+09
  +1.87003517587939691544e+09
  +1.90018090452261304855e+09
  +1.93032663316582918167e+09
  +1.96047236180904531479e+09
  +1.99061809045226144791e+09
  +2.02076381909547734261e+09
  +2.05090954773869347572e+09
  +2.08105527638190960884e+09
  +2.11120100502512574196e+09
  +2.14134673366834163666e+09
  +2.17149246231155776978e+09
  +2.20163819095477390289e+09
  +2.23178391959799003601e+09
  +2.26192964824120616913e+09
  +2.29207537688442230225e+09
  +2.32222110552763843536e+09
  +2.35236683417085409164e+09
  +2.38251256281407022476e+09
  +2.41265829145728635788e+09
  +2.44280402010050249100e+09
  +2.47294974874371862411e+09
  +2.50309547738693475723e+09
  +2.53324120603015089035e+09
  +2.56338693467336702347e+09
  +2.59353266331658315659e+09
  +2.62367839195979881287e+09
  +2.65382412060301494598e+09
  +2.68396984924623107910e+09
  +2.71411557788944721222e+09
  +2.74426130653266334534e+09
  +2.77440703517587947845e+09
  +2.80455276381909561157e+09
  +2.83469849246231174469e+09
  +2.86484422110552787781e+09
  +2.89498994974874401093e+09
  +2.92513567839195966721e+09
  +2.95528140703517580032e+09
  +2.98542713567839193344e+09
  +3.01557286432160806656e+09
  +3.04571859296482419968e+09
  +3.07586432160804033279e+09
  +3.10601005025125646591e+09
  +3.13615577889447259903e+09
  +3.16630150753768873215e+09
  +3.19644723618090438843e+09
  +3.22659296482412052155e+09
  +3.25673869346733665466e+09
  +3.28688442211055278778e+09
  +3.31703015075376892090e+09
  +3.34717587939698505402e+09
  +3.37732160804020118713e+09
  +3.40746733668341732025e+09
  +3.43761306532663345337e+09
  +3.46775879396984910965e+09
  +3.49790452261306524277e+09
  +3.52805025125628137589e+09
  +3.55819597989949750900e+09
  +3.58834170854271364212e+09
  +3.61848743718592977524e+09
  +3.64863316582914590836e+09
  +3.67877889447236204147e+09
  +3.70892462311557817459e+09
  +3.73907035175879383087e+09
  +3.76921608040200996399e+09
  +3.79936180904522609711e+09
  +3.82950753768844223022e+09
  +3.85965326633165836334e+09
  +3.88979899497487449646e+09
  +3.91994472361809062958e+09
  +3.95009045226130676270e+09
  +3.98023618090452289581e+09
  +4.01038190954773855209e+09
  +4.04052763819095468521e+09
  +4.07067336683417081833e+09
  +4.10081909547738695145e+09
  +4.13096482412060308456e+09
  +4.16111055276381921768e+09
  +4.19125628140703535080e+09
  +4.22140201005025148392e+09
  +4.25154773869346761703e+09
  +4.28169346733668327332e+09
  +4.31183919597989940643e+09
  +4.34198492462311553955e+09
  +4.37213065326633167267e+09
  +4.40227638190954780579e+09
  +4.43242211055276393890e+09
  +4.46256783919598007202e+09
  +4.49271356783919620514e+09
  +4.52285929648241233826e+09
  +4.55300502512562847137e+09
  +4.58315075376884460449e+09
  +4.61329648241206073761e+09
  +4.64344221105527687073e+09
  +4.67358793969849300385e+09
  +4.70373366834170818329e+09
  +4.73387939698492431641e+09
  +4.76402512562814044952e+09
  +4.79417085427135658264e+09
  +4.82431658291457271576e+09
  +4.85446231155778884888e+09
  +4.88460804020100498199e+09
  +4.91475376884422111511e+09
  +4.94489949748743724823e+09
  +4.97504522613065338135e+09
  +5.00519095477386951447e+09
  +5.03533668341708564758e+09
  +5.06548241206030178070e+09
  +5.09562814070351791382e+09
  +5.12577386934673404694e+09
  +5.15591959798995018005e+09
  +5.18606532663316631317e+09
  +5.21621105527638244629e+09
  +5.24635678391959762573e+09
  +5.27650251256281375885e+09
  +5.30664824120602989197e+09
  +5.33679396984924602509e+09
  +5.36693969849246215820e+09
  +5.39708542713567829132e+09
  +5.42723115577889442444e+09
  +5.45737688442211055756e+09
  +5.48752261306532669067e+09
  +5.51766834170854282379e+09
  +5.54781407035175895691e+09
  +5.57795979899497509003e+09
  +5.60810552763819122314e+09
  +5.63825125628140735626e+09
  +5.66839698492462348938e+09
  +5.69854271356783962250e+09
  +5.72868844221105575562e+09
  +5.75883417085427188873e+09
  +5.78897989949748802185e+09
  +5.81912562814070320129e+09
  +5.84927135678391933441e+09
  +5.87941708542713546753e+09
  +5.90956281407035160065e+09
  +5.93970854271356773376e+09
  +5.96985427135678386688e+09
  +6.00000000000000000000e+09
</indep>
<dep dBS11 frequency>
  +1.31025248858195164647e-01
  +3.07425082855611819799e-01
  +5.13785198696711908894e-01
  +7.60584681501586978847e-01
  +1.05207063421306123985e+00
  +1.37664952587072808576e+00
  +1.71745734550410422692e+00
  +2.05445141215358928477e+00
  +2.36602971388183380697e+00
  +2.63151886637573806382e+00
  +2.81922056541772425575e+00
  +2.74987357998049697372e+00
  +2.59350533844138464445e+00
  +2.37037629956863149516e+00
  +1.97924054676818372833e+00
  +1.52507467388068063130e+00
  +1.06879226891379897069e+00
  +5.89079311659843507520e-01
  +8.36553750599523943121e-02
  -3.91703015827418843386e-01
  -8.39213952851072808592e-01
  -1.30950504736024253560e+00
  -1.74514268306190012403e+00
  -2.14387945752620945328e+00
  -2.54757665956537104890e+00
  -2.93051175740155933624e+00
  -3.28265014961920442715e+00
  -3.62430011074036562135e+00
  -3.96059541105611945255e+00
  -4.27118960678029324640e+00
  -4.56173661558175602693e+00
  -4.85807008813860363716e+00
  -5.13307245472510498274e+00
  -5.38613012825141179718e+00
  -5.64481013945294662904e+00
  -5.88981378584494752459e+00
  -6.11639958959191520904e+00
  -6.34024415611381986224e+00
  -6.56159602715084666613e+00
  -6.76732219541445978450e+00
  -6.96296539405928616162e+00
  -7.16463395796805979643e+00
  -7.35240022499379186627e+00
  -7.52575908724406872352e+00
  -7.71059021718496673259e+00
  -7.88590325696078053852e+00
  -8.04877046543549568014e+00
  -8.21289288249399795916e+00
  -8.37541789962105553968e+00
  -8.52667515700341382967e+00
  -8.67220350905785686280e+00
  -8.82270114907533375970e+00
  -8.96277030936399654593e+00
  -9.09200571362950782373e+00
  -9.22796207212899943784e+00
  -9.35489702282223589691e+00
  -9.47168361817480786158e+00
  -9.58935679135073471002e+00
  -9.70369211035393064435e+00
  -9.80819075266168383109e+00
  -9.90852847574632278338e+00
  -1.00118628854235502956e+01
  -1.01057468093465629977e+01
  -1.01899781686225860966e+01
  -1.02827247084793640397e+01
  -1.03663292060458740451e+01
  -1.04405192758798115449e+01
  -1.05150223580653428002e+01
  -1.05846891505465592331e+01
  -1.06448853695895735427e+01
  -1.07013540383759657715e+01
  -1.07585503218711728834e+01
  -1.08064792810471317352e+01
  -1.08457134825211358731e+01
  -1.08883300086454291034e+01
  -1.09218686179378643430e+01
  -1.09462327380930517506e+01
  -1.09719559121026257742e+01
  -1.09924631937725081343e+01
  -1.10039890656645322764e+01
  -1.10110965688511228677e+01
  -1.10158160430803579999e+01
  -1.10119962819448282687e+01
  -1.10005295120237391870e+01
  -1.09879794124596568139e+01
  -1.09673872639806155860e+01
  -1.09388845614476171164e+01
  -1.09086641914632025419e+01
  -1.08725470051989709930e+01
  -1.08290692299960120693e+01
  -1.07829214421744019603e+01
  -1.07350629125452456947e+01
  -1.06806550480020572280e+01
  -1.06214731219273001983e+01
  -1.05649353354949084860e+01
  -1.05025572121986634500e+01
  -1.04345777468706195634e+01
  -1.03634296678899566757e+01
  -1.02876300616714839720e+01
  -1.02069856552788778004e+01
  -1.01253330290684253612e+01
  -1.00427230491224843689e+01
  -9.95602790970890971778e+00
  -9.86644630247257836686e+00
  -9.77713504920014209176e+00
  -9.68435802529764444557e+00
  -9.58832235165938229215e+00
  -9.49293547351309108251e+00
  -9.39526285598810062538e+00
  -9.29499557206015936117e+00
  -9.19497431049165747652e+00
  -9.09483633114932388253e+00
  -8.99270760348249531546e+00
  -8.88951428656769948589e+00
  -8.78700426105702092627e+00
  -8.68295854235247155373e+00
  -8.57749896998442729057e+00
  -8.47357228461813427600e+00
  -8.36865455756311504842e+00
  -8.26263309508204457643e+00
  -8.16093435578587822476e+00
  -8.06176015419157998565e+00
  -7.96184835343109753580e+00
  -7.86259410581440132404e+00
  -7.76591002706611810424e+00
  -7.66873597989927624496e+00
  -7.57113367554709348894e+00
  -7.47423830131693023304e+00
  -7.37711244298766555261e+00
  -7.27978590754638510418e+00
  -7.18216007640359865860e+00
  -7.08440695683094201485e+00
  -6.98665399976347956112e+00
  -6.89053985013876069132e+00
  -6.79760558071181897333e+00
  -6.70486338853661845150e+00
  -6.61238250287094153634e+00
  -6.52163430394642507082e+00
  -6.43123586090241516899e+00
  -6.34121079280472432771e+00
  -6.25351619668699321153e+00
  -6.16706436429389359688e+00
  -6.08108837223460785282e+00
  -5.99679030010802360806e+00
  -5.91487785182211567303e+00
  -5.83355103361737103995e+00
  -5.75299768228766605915e+00
  -5.67521812308319439921e+00
  -5.59812065969931893505e+00
  -5.52171692974023464728e+00
  -5.44959489635827409870e+00
  -5.37941725763568801000e+00
  -5.31006679921726387761e+00
  -5.24134609509958604434e+00
  -5.17324139886444278602e+00
  -5.10603903327348440655e+00
  -5.04017205817727464989e+00
  -4.97825587757009202505e+00
  -4.91734594427359805735e+00
  -4.85745348984350577837e+00
  -4.80158242531047108059e+00
  -4.74754060125286247995e+00
  -4.69463014352284524477e+00
  -4.64246321604965750396e+00
  -4.59105396691057521252e+00
  -4.54083860256980198500e+00
  -4.49267839082139541773e+00
  -4.44985701517866516497e+00
  -4.40833694930230990394e+00
  -4.36813171029350399976e+00
  -4.33002190582452151091e+00
  -4.29343719724356009948e+00
  -4.25826547980035385876e+00
  -4.22630952369680024105e+00
  -4.19735830741653792586e+00
  -4.16989689884842462675e+00
  -4.14407135370034396260e+00
  -4.12024942728305010320e+00
  -4.09799646805756090373e+00
  -4.07732782778210633978e+00
  -4.06029833683273544409e+00
  -4.04514903350151300288e+00
  -4.03167928121223262394e+00
  -4.02224584085152336854e+00
  -4.01623086033489773428e+00
  -4.01200862476640196519e+00
  -4.00952674442681544775e+00
  -4.00870115548919159210e+00
  -4.00973036138750149604e+00
  -4.01262550217863633861e+00
  -4.01969168098401041789e+00
  -4.02880462120100446555e+00
  -4.03985660097167809113e+00
  -4.05490185681709558452e+00
  -4.07310447231315464478e+00
  -4.09329412581683005357e+00
  -4.11588086680836440223e+00
  -4.14135983892432513187e+00
  -4.16886497919906151566e+00
  -4.19839424260627502861e+00
</dep>
<dep dBS21 frequency>
  -2.63632507741090122977e+01
  +7.35045940187704971436e+00
  +1.13389894318871142787e+01
  +1.44061190427297614036e+01
  +1.67621593596658904346e+01
  +1.86461625035492915003e+01
  +2.01916374798258644319e+01
  +2.14699146846493569285e+01
  +2.25180378830984970762e+01
  +2.33551796071857644677e+01
  +2.39850036749297181871e+01
  +2.43230052862029353378e+01
  +2.44833692547363881431e+01
  +2.44966871345285461814e+01
  +2.43313703719891165633e+01
  +2.40630039230807497574e+01
  +2.37379815595753562718e+01
  +2.33704764401825215714e+01
  +2.29744391107173768773e+01
  +2.25685778443821547512e+01
  +2.21607431485710826280e+01
  +2.17585628315221590867e+01
  +2.13599093013448673162e+01
  +2.09666497323827591970e+01
  +2.05951726357500390918e+01
  +2.02328979776414819014e+01
  +1.98764712068146067736e+01
  +1.95344452569333206782e+01
  +1.92061829060207607256e+01
  +1.88828640933253240064e+01
  +1.85675290256358884733e+01
  +1.82704494205451268840e+01
  +1.79768785849561005818e+01
  +1.76866800834964301714e+01
  +1.74164436299534912678e+01
  +1.71515550143833621632e+01
  +1.68891585168625226743e+01
  +1.66385382165702466750e+01
  +1.63978594212624244619e+01
  +1.61590970367602935198e+01
  +1.59246722379932208469e+01
  +1.57003318197054007044e+01
  +1.54773945950033908758e+01
  +1.52558078923102087288e+01
  +1.50514385494500295692e+01
  +1.48499028094326881444e+01
  +1.46495865257784849689e+01
  +1.44556544475718204978e+01
  +1.42662584245796786320e+01
  +1.40777502784206642872e+01
  +1.38930781845387514295e+01
  +1.37170584531236077197e+01
  +1.35418477778865771199e+01
  +1.33674428230057529277e+01
  +1.32009118090557180381e+01
  +1.30353132899147698964e+01
  +1.28703241855912597913e+01
  +1.27119690909333282747e+01
  +1.25576766014234344482e+01
  +1.24040874088138330933e+01
  +1.22531913653860229374e+01
  +1.21070489311096096685e+01
  +1.19614712409340651078e+01
  +1.18165145721618394248e+01
  +1.16799741214143963930e+01
  +1.15440039475764670840e+01
  +1.14086160642115164165e+01
  +1.12773931444973172233e+01
  +1.11483900389925629781e+01
  +1.10200110769418238021e+01
  +1.08940772313431395446e+01
  +1.07718004460607534867e+01
  +1.06501281514051804322e+01
  +1.05293304384689569986e+01
  +1.04135031586345565557e+01
  +1.02982670015025306043e+01
  +1.01836406110625983246e+01
  +1.00714405539243596621e+01
  +9.96046461380477587966e+00
  +9.85008077301288054173e+00
  +9.74223767294913400860e+00
  +9.63764702869180212019e+00
  +9.53364465204740874071e+00
  +9.43062575574501238407e+00
  +9.33150376856643504198e+00
  +9.23299475742328112915e+00
  +9.13511776698665123320e+00
  +9.03983161254313216659e+00
  +8.94572386813011632967e+00
  +8.85228216661654698783e+00
  +8.76040418380970287160e+00
  +8.67014789701887345075e+00
  +8.58050559285538838594e+00
  +8.49205783198680919099e+00
  +8.40741243247281211382e+00
  +8.32341427869817529483e+00
  +8.24008159375853210804e+00
  +8.15831340199856747120e+00
  +8.07737103087249153077e+00
  +7.99709134333735072175e+00
  +7.91845186215287544229e+00
  +7.84136192385588071119e+00
  +7.76492428743843188244e+00
  +7.68958099894397939522e+00
  +7.61662207855662565237e+00
  +7.54434560900715212028e+00
  +7.47276780103164117719e+00
  +7.40260526983875788432e+00
  +7.33319587919465654124e+00
  +7.26445584534951294131e+00
  +7.19679252088103638130e+00
  +7.13006640196128493869e+00
  +7.06396951033427722422e+00
  +6.99910016490396813538e+00
  +6.93664768154919997301e+00
  +6.87483280569638743884e+00
  +6.81366659128742924167e+00
  +6.75386647593474798157e+00
  +6.69477629672183915943e+00
  +6.63635380084249426602e+00
  +6.57872490988720670657e+00
  +6.52177856473358552591e+00
  +6.46543160123699323094e+00
  +6.41014321941617204459e+00
  +6.35653217367870304599e+00
  +6.30352693318028478586e+00
  +6.25113473591594992484e+00
  +6.20051852603209319170e+00
  +6.15053050994784200611e+00
  +6.10115117149165531174e+00
  +6.05279107186951126351e+00
  +6.00523398790275919623e+00
  +5.95827233732943639666e+00
  +5.91178709110813649374e+00
  +5.86563249114315965471e+00
  +5.82002656499712323068e+00
  +5.77501052722078966895e+00
  +5.73194630632096746581e+00
  +5.68941216682243933178e+00
  +5.64740834830874938177e+00
  +5.60573791818610001059e+00
  +5.56448863900789625347e+00
  +5.52373427399175120911e+00
  +5.48373832511418246582e+00
  +5.44462385448900398899e+00
  +5.40596727718459479917e+00
  +5.36780236363794749366e+00
  +5.33054970045242271226e+00
  +5.29372868847378263979e+00
  +5.25733282089455489228e+00
  +5.22035088306875039166e+00
  +5.18339841891643082761e+00
  +5.14677761960257562635e+00
  +5.11114233266982864734e+00
  +5.07666849224395644313e+00
  +5.04250654669332920577e+00
  +5.00857898350066044202e+00
  +4.97445209622401307570e+00
  +4.94055358088354701351e+00
  +4.90686838996165253235e+00
  +4.87381289667189321335e+00
  +4.84103715114051613710e+00
  +4.80842044953120062445e+00
  +4.77585619604869293653e+00
  +4.74330902346926563951e+00
  +4.71084787436590257670e+00
  +4.67857213537820282312e+00
  +4.64692052314136461177e+00
  +4.61529770287295626474e+00
  +4.58368213230390963986e+00
  +4.55104841101041923679e+00
  +4.51817333238263074691e+00
  +4.48520040105133155350e+00
  +4.45287575334998297905e+00
  +4.42108483542283003942e+00
  +4.38914547558606393807e+00
  +4.35704378733821684477e+00
  +4.32477940739637567447e+00
  +4.29228075160425603940e+00
  +4.25952025293197955591e+00
  +4.22624287308889545756e+00
  +4.19261214230712475626e+00
  +4.15862332538163048667e+00
  +4.12415256715601685755e+00
  +4.08920604806481780003e+00
  +4.05382518339930975060e+00
  +4.01796968158512157743e+00
  +3.98158557191860307256e+00
  +3.94467740207033568112e+00
  +3.90721749209521362900e+00
  +3.86919838916086522573e+00
  +3.83058880311187710532e+00
  +3.79136250640423444480e+00
  +3.75161684493395686246e+00
  +3.71128442394934809911e+00
  +3.67027305862769104294e+00
  +3.62880699653389537929e+00
  +3.58715800843700138856e+00
  +3.54477725388819431274e+00
  +3.50164409023358702555e+00
</dep>
<dep dBS12 frequency>
  -6.51754494629506098136e+01
  -3.42309652866363762769e+01
  -3.33567427922167354382e+01
  -3.21379816801272539806e+01
  -3.08515790516474694982e+01
  -2.96121635740826860683e+01
  -2.84820663510081786285e+01
  -2.74984813266724756886e+01
  -2.66867641170087921410e+01
  -2.60651405474951900487e+01
  -2.56647497303930336443e+01
  -2.56753860395088011614e+01
  -2.58380155183795352514e+01
  -2.61302450260354959255e+01
  -2.66699448400146685856e+01
  -2.72886222912466891444e+01
  -2.78960038609713336655e+01
  -2.84932267132646472874e+01
  -2.90395063788845320119e+01
  -2.94418230824063016371e+01
  -2.96857144779420245584e+01
  -2.98180875060139705113e+01
  -2.97746154412233607900e+01
  -2.95793065804303090260e+01
  -2.92995553473466152639e+01
  -2.89416021598954777971e+01
  -2.85259333660444625025e+01
  -2.80931522966593369972e+01
  -2.76586111073726641507e+01
  -2.72146774351638711664e+01
  -2.67716068436283691767e+01
  -2.63439375336018919427e+01
  -2.59226884184601402694e+01
  -2.55095563462220944473e+01
  -2.51272314951980035858e+01
  -2.47575159478115125467e+01
  -2.43967377937236378216e+01
  -2.40532718503165057200e+01
  -2.37256715398096993397e+01
  -2.34061858390582955280e+01
  -2.30971289831638415535e+01
  -2.28048628068840244509e+01
  -2.25188862969460998897e+01
  -2.22386730701538795074e+01
  -2.19749112716866044082e+01
  -2.17176194818307308765e+01
  -2.14652429013316101702e+01
  -2.12229897534127545100e+01
  -2.09888943031825228047e+01
  -2.07587341110207965755e+01
  -2.05346288456572096948e+01
  -2.03204589828142516694e+01
  -2.01094575138062303665e+01
  -1.99013306753085394973e+01
  -1.97015027703539900017e+01
  -1.95045163078609853358e+01
  -1.93098799880889586689e+01
  -1.91224822117922634845e+01
  -1.89399741793873701567e+01
  -1.87593067993836974949e+01
  -1.85808835552713773609e+01
  -1.84053857327382672793e+01
