!Keysight Technologies,N5247B,MY60213743,A.16.20.04
!Date: Thursday, June 05, 2025 15:18:02
!Correction: S11(C  1-Port  ) 
!S1P File: Measurement: S11:
# Hz S  RI   R 50
10000000 -0.60918272 -0.0026042163
20000000 -0.61005652 0.0010171831
30000000 -0.61024082 0.0034102872
40000000 -0.60981715 0.0060634017
50000000 -0.60950059 0.007435441
60000000 -0.61009002 0.010139108
70000000 -0.60972607 0.012742043
80000000 -0.60941023 0.015137706
90000000 -0.60764539 0.016518354
100000000 -0.60763013 0.016817234
110000000 -0.60852039 0.018252045
120000000 -0.60868865 0.020078555
130000000 -0.60855973 0.021846253
140000000 -0.60861683 0.024154097
150000000 -0.60806572 0.026153103
160000000 -0.60750705 0.027905598
170000000 -0.60716772 0.030429572
180000000 -0.60633284 0.032964129
190000000 -0.6057139 0.034671992
200000000 -0.60585892 0.035575852
210000000 -0.60582644 0.037249714
220000000 -0.60545582 0.039019912
230000000 -0.60573578 0.041883871
240000000 -0.60576773 0.042438284
250000000 -0.6049298 0.04475975
260000000 -0.60436583 0.047260687
270000000 -0.6038959 0.049018353
280000000 -0.60289448 0.051212907
290000000 -0.60241997 0.05254969
300000000 -0.60299319 0.054297775
310000000 -0.6027205 0.056889549
320000000 -0.602 0.057793587
330000000 -0.60212058 0.059501171
340000000 -0.60171264 0.061782733
350000000 -0.60220593 0.063460633
360000000 -0.60184395 0.06546399
370000000 -0.60133839 0.067380294
380000000 -0.60063422 0.068929285
390000000 -0.6001178 0.070536353
400000000 -0.59916639 0.072907865
410000000 -0.59867674 0.073904365
420000000 -0.59942716 0.075977206
430000000 -0.59920311 0.078389063
440000000 -0.59917039 0.079619542
450000000 -0.59879398 0.081413597
460000000 -0.59859896 0.083364189
470000000 -0.59778547 0.084605329
480000000 -0.59711856 0.086256564
490000000 -0.59722412 0.087365314
500000000 -0.59627479 0.088714972
510000000 -0.59570879 0.090445906
520000000 -0.59595275 0.092249803
530000000 -0.59560478 0.09435717
540000000 -0.59541154 0.096391529
550000000 -0.59490424 0.098692656
560000000 -0.59422541 0.10029411
570000000 -0.59395075 0.10163239
580000000 -0.59350783 0.10362504
590000000 -0.59244561 0.10497513
600000000 -0.59251034 0.10630397
610000000 -0.59176838 0.10750072
620000000 -0.5932501 0.10861386
630000000 -0.59272295 0.11136916
640000000 -0.59163964 0.11344814
650000000 -0.59120983 0.11504319
660000000 -0.5905354 0.11694863
670000000 -0.5901891 0.11907175
680000000 -0.58930546 0.12079255
690000000 -0.58848965 0.12207305
700000000 -0.5876931 0.12382323
710000000 -0.58806127 0.12525353
720000000 -0.58730078 0.12727749
730000000 -0.58633935 0.12820512
740000000 -0.58626574 0.12998722
750000000 -0.58502394 0.13147524
760000000 -0.58435488 0.13318855
770000000 -0.58340013 0.13472705
780000000 -0.58310795 0.13577536
790000000 -0.58217782 0.13757862
800000000 -0.58261877 0.13826878
810000000 -0.58135599 0.13974427
820000000 -0.58130229 0.14100048
830000000 -0.5802995 0.14327744
840000000 -0.57992727 0.14467445
850000000 -0.57992101 0.14466074
860000000 -0.57841575 0.14732732
870000000 -0.57818794 0.14863203
880000000 -0.57772964 0.15076064
890000000 -0.57691622 0.1516744
900000000 -0.57641506 0.15343314
910000000 -0.57631582 0.15552026
920000000 -0.57601279 0.15607437
930000000 -0.57648957 0.15795681
940000000 -0.57671934 0.16075476
950000000 -0.57425094 0.16263056
960000000 -0.57402217 0.16443971
970000000 -0.57337534 0.16613695
980000000 -0.57253069 0.16870441
990000000 -0.57098585 0.16925214
1000000000 -0.57079434 0.17168647
1010000000 -0.56975091 0.17201358
1020000000 -0.56908119 0.17409791
1030000000 -0.5688253 0.17505395
1040000000 -0.56822366 0.17703931
1050000000 -0.56736535 0.17900293
1060000000 -0.5667218 0.17958821
1070000000 -0.56654555 0.18185404
1080000000 -0.56606728 0.18315375
1090000000 -0.56557089 0.18462607
1100000000 -0.56467432 0.18577281
1110000000 -0.56352961 0.18711188
1120000000 -0.56357539 0.18833983
1130000000 -0.56312287 0.19056164
1140000000 -0.56237632 0.1916724
1150000000 -0.56125456 0.19291241
1160000000 -0.56056398 0.19413988
1170000000 -0.55990732 0.19475245
1180000000 -0.5593164 0.19594482
1190000000 -0.55862838 0.19650637
1200000000 -0.55905581 0.19861495
1210000000 -0.55858779 0.19990891
1220000000 -0.55785406 0.20031631
1230000000 -0.55839372 0.20212594
1240000000 -0.55728447 0.20392822
1250000000 -0.55676401 0.2056568
1260000000 -0.55563855 0.20624551
1270000000 -0.5553984 0.20732176
1280000000 -0.55504322 0.20863339
1290000000 -0.55390263 0.21044597
1300000000 -0.55258453 0.21072602
1310000000 -0.55360907 0.21074516
1320000000 -0.55372256 0.21275896
1330000000 -0.55372864 0.21240665
1340000000 -0.55690521 0.2159317
1350000000 -0.55637544 0.22027722
1360000000 -0.55468225 0.22108807
1370000000 -0.55447656 0.22285306
1380000000 -0.55425495 0.22400704
1390000000 -0.55321586 0.22625721
1400000000 -0.55310714 0.22934628
1410000000 -0.5511412 0.2319354
1420000000 -0.54975909 0.23329872
1430000000 -0.54872721 0.23522611
1440000000 -0.54707998 0.23710683
1450000000 -0.54649901 0.23850788
1460000000 -0.54520625 0.24062508
1470000000 -0.54366004 0.24234606
1480000000 -0.54261017 0.24301879
1490000000 -0.54232776 0.2435948
1500000000 -0.54115516 0.24515156
1510000000 -0.54007018 0.24553752
1520000000 -0.53941566 0.24781501
1530000000 -0.53923982 0.24836403
1540000000 -0.53877252 0.25018564
1550000000 -0.53720731 0.25246114
1560000000 -0.53623992 0.25499457
1570000000 -0.53499222 0.25631702
1580000000 -0.53362197 0.25669837
1590000000 -0.5339669 0.2583999
1600000000 -0.53264779 0.26042682
1610000000 -0.53181052 0.26150626
1620000000 -0.53078699 0.26345959
1630000000 -0.52873933 0.26359734
1640000000 -0.52814651 0.26468772
1650000000 -0.52677602 0.26577306
1660000000 -0.52567697 0.26692432
1670000000 -0.52523172 0.26783255
1680000000 -0.5241431 0.26959071
1690000000 -0.52372897 0.27082026
1700000000 -0.52311122 0.27193183
1710000000 -0.52212632 0.27265874
1720000000 -0.52204669 0.27433628
1730000000 -0.52136141 0.27460432
1740000000 -0.52100986 0.27559435
1750000000 -0.52016747 0.27684024
1760000000 -0.52035427 0.27760673
1770000000 -0.5196445 0.27929574
1780000000 -0.51893532 0.28114259
1790000000 -0.51770246 0.2830652
1800000000 -0.51698261 0.28479308
1810000000 -0.51576102 0.28600252
1820000000 -0.51578373 0.28776807
1830000000 -0.51508683 0.28924552
1840000000 -0.51392043 0.28925091
1850000000 -0.51411951 0.29115084
1860000000 -0.51285505 0.29202893
1870000000 -0.51218367 0.2929973
1880000000 -0.51051927 0.29500914
1890000000 -0.50940979 0.29567933
1900000000 -0.508241 0.29718375
1910000000 -0.50689077 0.29846773
1920000000 -0.50532889 0.29932392
1930000000 -0.50453645 0.30035591
1940000000 -0.50433689 0.3017236
1950000000 -0.5037623 0.30205613
1960000000 -0.50352061 0.30374667
1970000000 -0.5021283 0.30410206
1980000000 -0.50165766 0.30445752
1990000000 -0.50107789 0.30490285
2000000000 -0.49984169 0.30653426
2010000000 -0.4988707 0.30730468
2020000000 -0.49729335 0.30904236
2030000000 -0.49639392 0.30898491
2040000000 -0.49614722 0.31080279
2050000000 -0.49518043 0.31093264
2060000000 -0.49556103 0.31238908
2070000000 -0.49410236 0.31456554
2080000000 -0.49347794 0.31503099
2090000000 -0.49295455 0.31526846
2100000000 -0.49202687 0.31606144
2110000000 -0.49156868 0.31686696
2120000000 -0.49060494 0.31755641
2130000000 -0.49022931 0.31861788
2140000000 -0.48943284 0.31950402
2150000000 -0.48895514 0.32243946
2160000000 -0.48781109 0.32340863
2170000000 -0.48689985 0.3246848
2180000000 -0.48731887 0.32676932
2190000000 -0.48547065 0.32729796
2200000000 -0.48509747 0.32861462
2210000000 -0.48534027 0.32976025
2220000000 -0.4838559 0.33044082
2230000000 -0.48374736 0.33142892
2240000000 -0.48304603 0.33380648
2250000000 -0.48159045 0.33461469
2260000000 -0.48052317 0.33612749
2270000000 -0.47958302 0.33728421
2280000000 -0.47898343 0.33903879
2290000000 -0.47749966 0.33893719
2300000000 -0.47860688 0.34049022
2310000000 -0.47760287 0.34266424
2320000000 -0.47614413 0.34455171
2330000000 -0.47496653 0.34554005
2340000000 -0.47340587 0.34678474
2350000000 -0.47197935 0.34844056
2360000000 -0.46995535 0.34754696
2370000000 -0.47011489 0.34803233
2380000000 -0.47061726 0.34863696
2390000000 -0.46997499 0.35071278
2400000000 -0.469037 0.35166246
2410000000 -0.46932125 0.35315993
2420000000 -0.46843654 0.35496181
2430000000 -0.46845081 0.35578647
2440000000 -0.46822676 0.35751012
2450000000 -0.46615312 0.35882667
2460000000 -0.465994 0.36110008
2470000000 -0.4646073 0.36142442
2480000000 -0.4636929 0.36255288
2490000000 -0.46221477 0.36469865
2500000000 -0.46220684 0.36596295
2510000000 -0.46065685 0.36816925
2520000000 -0.45908636 0.36928174
2530000000 -0.45769686 0.37035212
2540000000 -0.45622185 0.37079096
2550000000 -0.45635381 0.3718071
2560000000 -0.45568243 0.37136111
2570000000 -0.45615989 0.37331492
2580000000 -0.45407248 0.37571627
2590000000 -0.45326418 0.37610194
2600000000 -0.45332202 0.37743732
2610000000 -0.45117053 0.37957096
2620000000 -0.4505558 0.37998372
2630000000 -0.44990933 0.38114157
2640000000 -0.44861084 0.38254276
2650000000 -0.44796953 0.38481432
2660000000 -0.44734746 0.38549596
2670000000 -0.44714567 0.38801694
2680000000 -0.44508016 0.390035
2690000000 -0.44307721 0.39084071
2700000000 -0.44279638 0.39057654
2710000000 -0.44181976 0.39298391
2720000000 -0.44045442 0.39466769
2730000000 -0.4392339 0.39529648
2740000000 -0.43774095 0.39672136
2750000000 -0.43621868 0.39785823
2760000000 -0.43512568 0.40019342
2770000000 -0.43394184 0.40116945
2780000000 -0.43225247 0.40252259
2790000000 -0.43115863 0.40316969
2800000000 -0.42971775 0.40431935
2810000000 -0.42807487 0.40500382
2820000000 -0.42719251 0.40632105
2830000000 -0.42569119 0.40688345
2840000000 -0.42430955 0.40869775
2850000000 -0.42257661 0.40937963
2860000000 -0.42211384 0.41109169
2870000000 -0.42018163 0.41213116
2880000000 -0.41830912 0.41252968
2890000000 -0.41778743 0.41297963
2900000000 -0.41659772 0.41369665
2910000000 -0.41554701 0.41469592
2920000000 -0.41559047 0.41548544
2930000000 -0.41329342 0.41704834
2940000000 -0.4118112 0.41814145
2950000000 -0.41066721 0.41918725
2960000000 -0.40905869 0.4203679
2970000000 -0.40935075 0.42087379
2980000000 -0.40851265 0.42292362
2990000000 -0.40683508 0.42347288
3000000000 -0.40495843 0.42492276
3010000000 -0.40452158 0.42706391
3020000000 -0.40338063 0.42691356
3030000000 -0.40271768 0.42796314
3040000000 -0.4006066 0.42922944
3050000000 -0.39942744 0.43023229
3060000000 -0.39774466 0.43126225
3070000000 -0.39661193 0.43140399
3080000000 -0.39456829 0.43280381
3090000000 -0.39433551 0.43390405
3100000000 -0.39293042 0.43549395
3110000000 -0.39209938 0.43560222
3120000000 -0.3916522 0.43656203
3130000000 -0.39040226 0.43865085
3140000000 -0.38771728 0.43984669
3150000000 -0.38634905 0.43991879
3160000000 -0.38524181 0.44141614
3170000000 -0.38445276 0.44224685
3180000000 -0.38221863 0.44280934
3190000000 -0.38067108 0.44344744
3200000000 -0.38041025 0.44487938
3210000000 -0.37825298 0.44569725
3220000000 -0.37784794 0.44697976
3230000000 -0.37659997 0.44706756
3240000000 -0.37544179 0.44801947
3250000000 -0.37399286 0.44885442
3260000000 -0.37241194 0.44928712
3270000000 -0.37125215 0.4504649
3280000000 -0.37047109 0.45152453
3290000000 -0.36783487 0.45213023
3300000000 -0.36699724 0.45270315
3310000000 -0.36563942 0.45409855
3320000000 -0.36422279 0.45404619
3330000000 -0.36281621 0.45508301
3340000000 -0.3616713 0.45555875
3350000000 -0.36020222 0.4563576
3360000000 -0.35904333 0.45713383
3370000000 -0.35800385 0.45709482
3380000000 -0.35674179 0.4583852
3390000000 -0.35437334 0.45901003
3400000000 -0.35422993 0.458745
3410000000 -0.35301688 0.46056271
3420000000 -0.35015121 0.46179008
3430000000 -0.34949732 0.46190971
3440000000 -0.3492192 0.4622708
3450000000 -0.3482765 0.4631606
3460000000 -0.34771627 0.4635793
3470000000 -0.34672022 0.4651531
3480000000 -0.34527439 0.46540377
3490000000 -0.34420216 0.46497369
3500000000 -0.34241569 0.46709269
3510000000 -0.34123147 0.46827862
3520000000 -0.34023276 0.469109
3530000000 -0.33825734 0.46996421
3540000000 -0.33791155 0.4708153
3550000000 -0.33595094 0.47125095
3560000000 -0.33540493 0.47189391
3570000000 -0.33455631 0.4723537
3580000000 -0.33317488 0.47431797
3590000000 -0.33178672 0.474666
3600000000 -0.33093554 0.47447246
3610000000 -0.3290143 0.47593608
3620000000 -0.32736555 0.47664541
3630000000 -0.32590866 0.47689736
3640000000 -0.32543093 0.47721338
3650000000 -0.32424092 0.47751015
3660000000 -0.32272381 0.47884151
3670000000 -0.32214496 0.48007751
3680000000 -0.32150927 0.48059428
3690000000 -0.32030264 0.48003432
3700000000 -0.31855714 0.48110896
3710000000 -0.31727105 0.48118117
3720000000 -0.31642985 0.48176059
3730000000 -0.31554344 0.4824537
3740000000 -0.31307551 0.48261967
3750000000 -0.31243932 0.48284173
3760000000 -0.31148669 0.48373842
3770000000 -0.31178957 0.48489839
3780000000 -0.31023687 0.48585886
3790000000 -0.30914313 0.48690897
3800000000 -0.3084307 0.48807228
3810000000 -0.30747339 0.48755902
3820000000 -0.3065626 0.48844764
3830000000 -0.30495477 0.48825663
3840000000 -0.30366585 0.48863184
3850000000 -0.30324417 0.48985583
3860000000 -0.30229217 0.49020162
3870000000 -0.30124289 0.49182332
3880000000 -0.30003357 0.49206215
3890000000 -0.29893363 0.49353153
3900000000 -0.29710025 0.49485618
3910000000 -0.29605064 0.49524963
3920000000 -0.29579678 0.49609995
3930000000 -0.29345822 0.49713442
3940000000 -0.29105389 0.49842393
3950000000 -0.28876165 0.49755773
3960000000 -0.28717631 0.49789241
3970000000 -0.28678119 0.49723417
3980000000 -0.28635359 0.49719793
3990000000 -0.28480726 0.49795878
4000000000 -0.28510284 0.49851948
4010000000 -0.28411943 0.49990058
4020000000 -0.28191775 0.49994242
4030000000 -0.28156787 0.50085586
4040000000 -0.27999976 0.50158954
4050000000 -0.27944747 0.50215781
4060000000 -0.27785936 0.5021432
4070000000 -0.27723199 0.50229597
4080000000 -0.27549261 0.50279218
4090000000 -0.27518332 0.50365376
4100000000 -0.27432483 0.5053643
4110000000 -0.27336907 0.50534856
4120000000 -0.27217501 0.50635624
4130000000 -0.27110717 0.50713241
4140000000 -0.26964381 0.50826424
4150000000 -0.26827067 0.5090071
4160000000 -0.26685625 0.50900394
4170000000 -0.2651732 0.50918806
4180000000 -0.26302293 0.50909072
4190000000 -0.26213264 0.50876456
4200000000 -0.2624881 0.50883389
4210000000 -0.26220387 0.50966829
4220000000 -0.26049441 0.51117307
4230000000 -0.26000261 0.51167691
4240000000 -0.25922215 0.51224059
4250000000 -0.25886229 0.51266581
4260000000 -0.25768766 0.51416552
4270000000 -0.25628579 0.51517272
4280000000 -0.2553184 0.51501644
4290000000 -0.25428379 0.51594096
4300000000 -0.25329983 0.51792258
4310000000 -0.25180322 0.51874185
4320000000 -0.25069749 0.51948893
4330000000 -0.2497168 0.52040547
4340000000 -0.24836709 0.52127922
4350000000 -0.24708159 0.52243012
4360000000 -0.24506046 0.52265394
4370000000 -0.24429847 0.52320087
4380000000 -0.24242909 0.52353609
4390000000 -0.24050397 0.52356613
4400000000 -0.23943242 0.52288467
4410000000 -0.2385121 0.52428561
4420000000 -0.23682816 0.52403629
4430000000 -0.23511602 0.5249387
4440000000 -0.23336492 0.52473712
4450000000 -0.23190762 0.52341753
4460000000 -0.2328365 0.52347797
4470000000 -0.23204643 0.52460319
4480000000 -0.23096843 0.52471632
4490000000 -0.23056364 0.52403063
4500000000 -0.23076284 0.52525359
4510000000 -0.23082596 0.52574599
4520000000 -0.22991993 0.52737731
4530000000 -0.22879881 0.52812362
4540000000 -0.22816357 0.52932882
4550000000 -0.22650205 0.53098339
4560000000 -0.22589201 0.53207409
4570000000 -0.2233582 0.53257257
4580000000 -0.22255789 0.53309315
4590000000 -0.22210652 0.53330392
4600000000 -0.22109617 0.53505385
4610000000 -0.21941173 0.53588808
4620000000 -0.21693772 0.53638017
4630000000 -0.21606582 0.53514713
4640000000 -0.21528891 0.53687102
4650000000 -0.21363494 0.5388214
4660000000 -0.21122679 0.53793061
4670000000 -0.21092118 0.53861612
4680000000 -0.2101381 0.53969473
4690000000 -0.20814514 0.54029793
4700000000 -0.20620692 0.54098332
4710000000 -0.20501369 0.54047602
4720000000 -0.20677277 0.5403136
4730000000 -0.20558058 0.54168588
4740000000 -0.20310467 0.54410416
4750000000 -0.20174545 0.54293644
4760000000 -0.20005912 0.54362667
4770000000 -0.19887316 0.54455411
4780000000 -0.19781856 0.54547125
4790000000 -0.19744223 0.54697931
4800000000 -0.19684902 0.54740286
4810000000 -0.19474523 0.54847544
4820000000 -0.19448979 0.54866135
4830000000 -0.19306508 0.55005616
4840000000 -0.1922994 0.55210114
4850000000 -0.19022107 0.55325043
4860000000 -0.18829025 0.55438757
4870000000 -0.18597609 0.55504358
4880000000 -0.18405512 0.55514991
4890000000 -0.1825269 0.55578804
4900000000 -0.1808487 0.5569309
4910000000 -0.17941576 0.55755126
4920000000 -0.17700556 0.55718434
4930000000 -0.17709947 0.55731106
4940000000 -0.17485563 0.55948144
4950000000 -0.17317997 0.55950195
4960000000 -0.17125578 0.55930066
4970000000 -0.17031918 0.56009597
4980000000 -0.16892944 0.56042415
4990000000 -0.16721757 0.56049883
5000000000 -0.16626261 0.56218266
5010000000 -0.16479355 0.56301212
5020000000 -0.16253078 0.56361532
5030000000 -0.16081543 0.56335282
5040000000 -0.15986276 0.56363541
5050000000 -0.1584378 0.56479371
5060000000 -0.15721466 0.56558079
5070000000 -0.15542677 0.5664016
5080000000 -0.15388367 0.56729257
5090000000 -0.15262039 0.56784892
5100000000 -0.1504361 0.56953484
5110000000 -0.14711148 0.56940174
5120000000 -0.14593354 0.56912088
5130000000 -0.14495146 0.56993461
5140000000 -0.14345559 0.57015055
5150000000 -0.14148009 0.57123768
5160000000 -0.13887925 0.57140487
5170000000 -0.13721496 0.57142919
5180000000 -0.13568977 0.57273263
5190000000 -0.13238567 0.57250452
5200000000 -0.13164444 0.57144153
5210000000 -0.13085525 0.57156342
5220000000 -0.12881856 0.57192791
5230000000 -0.12720791 0.57297873
5240000000 -0.12492052 0.57442164
5250000000 -0.12378822 0.57360029
5260000000 -0.1215714 0.57413757
5270000000 -0.12018335 0.57335025
5280000000 -0.11852913 0.57400876
5290000000 -0.1160931 0.57466787
5300000000 -0.11407727 0.57471478
5310000000 -0.11264859 0.57574368
5320000000 -0.11023295 0.57556462
5330000000 -0.10862887 0.57516879
5340000000 -0.10663587 0.57512259
5350000000 -0.10578442 0.57446736
5360000000 -0.10397094 0.57522333
5370000000 -0.10240514 0.57561952
5380000000 -0.10098633 0.57622671
5390000000 -0.099067464 0.57616901
5400000000 -0.097483203 0.57633436
5410000000 -0.095862642 0.57643563
5420000000 -0.093004614 0.57711565
5430000000 -0.091781273 0.57648027
5440000000 -0.088868856 0.57657075
5450000000 -0.087298267 0.57580286
5460000000 -0.08709155 0.57481724
5470000000 -0.084792778 0.57645035
5480000000 -0.083520532 0.57691687
5490000000 -0.081706285 0.57604617
5500000000 -0.080843449 0.57618302
5510000000 -0.079945445 0.57583958
5520000000 -0.077468619 0.57718515
5530000000 -0.074658304 0.57713562
5540000000 -0.07205525 0.57713234
5550000000 -0.070272222 0.57639194
5560000000 -0.068762735 0.57612789
5570000000 -0.06678994 0.5765729
5580000000 -0.064352885 0.5757035
5590000000 -0.063214153 0.57463843
5600000000 -0.062997609 0.5745014
5610000000 -0.061923027 0.57521433
5620000000 -0.060344681 0.57518607
5630000000 -0.059441864 0.57462603
5640000000 -0.057666212 0.57574153
5650000000 -0.055401608 0.57556242
5660000000 -0.053456098 0.57573611
5670000000 -0.051829875 0.57672429
5680000000 -0.049074512 0.57600725
5690000000 -0.047361761 0.57566357
5700000000 -0.045843124 0.57624859
