!Keysight Technologies,N5247B,MY60213743,A.16.20.04
!Date: Thursday, June 05, 2025 14:59:08
!Correction: S11(C  1-Port  ) 
!S1P File: Measurement: S11:
# Hz S  RI   R 50
10000000 0.99818307 -0.0016292855
20000000 0.99906826 -0.0010911226
30000000 1.0015785 -0.001459986
40000000 1.0005249 -0.00214082
50000000 1.0010103 -0.0022821426
60000000 1.0012439 -0.0036042035
70000000 1.0012146 -0.0039657652
80000000 1.0016731 -0.0052214712
90000000 1.0010871 -0.005112946
100000000 1.0008401 -0.0067259669
110000000 1.0014151 -0.0062969178
120000000 1.0018718 -0.0072018802
130000000 1.0019001 -0.0075247139
140000000 1.0022442 -0.0082196891
150000000 1.0029533 -0.0088059753
160000000 1.0029051 -0.009344101
170000000 1.0036232 -0.00999102
180000000 1.0037098 -0.0099582449
190000000 1.0031135 -0.010775179
200000000 1.0036197 -0.01142028
210000000 1.0034935 -0.011150666
220000000 1.0037427 -0.012947083
230000000 1.0038828 -0.013175637
240000000 1.0039606 -0.013895661
250000000 1.0040697 -0.014767334
260000000 1.0040493 -0.01452443
270000000 1.004804 -0.015728205
280000000 1.0052643 -0.016055375
290000000 1.0050639 -0.016783543
300000000 1.0061693 -0.01680249
310000000 1.0059564 -0.017831713
320000000 1.0058005 -0.018354997
330000000 1.0052398 -0.019341171
340000000 1.005538 -0.019581527
350000000 1.0050514 -0.019583195
360000000 1.0053664 -0.02108191
370000000 1.0053493 -0.022161558
380000000 1.0045995 -0.022306561
390000000 1.0055258 -0.024137586
400000000 1.0050547 -0.023173977
410000000 1.0060737 -0.024012327
420000000 1.005716 -0.024331294
430000000 1.0057775 -0.025558025
440000000 1.0047516 -0.026025116
450000000 1.0043151 -0.026928484
460000000 1.0046359 -0.027530015
470000000 1.0031798 -0.02875407
480000000 1.0044703 -0.028678328
490000000 1.0045298 -0.030622095
500000000 1.0046204 -0.029811986
510000000 1.00486 -0.030761451
520000000 1.0049852 -0.031104105
530000000 1.005592 -0.031675845
540000000 1.006273 -0.032284588
550000000 1.0057094 -0.032705806
560000000 1.0055231 -0.033398896
570000000 1.0049291 -0.034018487
580000000 1.0042852 -0.034675516
590000000 1.0043402 -0.035539657
600000000 1.0044941 -0.036346033
610000000 1.0040839 -0.037032396
620000000 1.0044334 -0.037787408
630000000 1.0042084 -0.038061261
640000000 1.0047042 -0.038316995
650000000 1.0036676 -0.039971441
660000000 1.0041139 -0.039743409
670000000 1.0039115 -0.040481448
680000000 1.0042818 -0.040719956
690000000 1.0043814 -0.041389406
700000000 1.004288 -0.041603446
710000000 1.0041016 -0.042559713
720000000 1.0049181 -0.042858183
730000000 1.0046391 -0.044709504
740000000 1.0032542 -0.044211447
750000000 1.0042788 -0.04626739
760000000 1.0049112 -0.046390146
770000000 1.0036902 -0.046624362
780000000 1.0047655 -0.047130078
790000000 1.0048876 -0.048300385
800000000 1.0045621 -0.048897326
810000000 1.0050353 -0.049118944
820000000 1.005022 -0.05058372
830000000 1.0046037 -0.050300539
840000000 1.0048611 -0.05154134
850000000 1.004566 -0.051402718
860000000 1.0043263 -0.052228153
870000000 1.0042329 -0.053007558
880000000 1.0045526 -0.054126233
890000000 1.0043868 -0.054177247
900000000 1.0048871 -0.054968566
910000000 1.0051769 -0.055419818
920000000 1.0045437 -0.055842668
930000000 1.0043508 -0.056204051
940000000 1.0049583 -0.057256885
950000000 1.0044119 -0.057770371
960000000 1.0044334 -0.058441788
970000000 1.0040957 -0.0585941
980000000 1.0042248 -0.059574038
990000000 1.0044223 -0.060172804
1000000000 1.0046072 -0.060688138
1010000000 1.005098 -0.060849935
1020000000 1.0046337 -0.062173761
1030000000 1.005303 -0.062239707
1040000000 1.0051037 -0.063303411
1050000000 1.0052314 -0.06336835
1060000000 1.0046779 -0.064598829
1070000000 1.0046846 -0.065346412
1080000000 1.0042301 -0.06544292
1090000000 1.0046575 -0.066060066
1100000000 1.0040894 -0.066700801
1110000000 1.0032448 -0.067855448
1120000000 1.0037856 -0.068692967
1130000000 1.0037922 -0.068873137
1140000000 1.0032377 -0.06999591
1150000000 1.0028374 -0.07095211
1160000000 1.0034853 -0.071501136
1170000000 1.003279 -0.072124094
1180000000 1.0031838 -0.0724549
1190000000 1.0026754 -0.072412401
1200000000 1.0030869 -0.073212013
1210000000 1.0033319 -0.074403882
1220000000 1.0025811 -0.075085193
1230000000 1.0029675 -0.075662211
1240000000 1.0016952 -0.076551437
1250000000 1.0023035 -0.077076107
1260000000 1.0017184 -0.077631682
1270000000 1.0017048 -0.078508765
1280000000 1.0019745 -0.078979604
1290000000 1.0020771 -0.079755843
1300000000 1.002152 -0.079113215
1310000000 1.0017749 -0.080510408
1320000000 1.0019495 -0.081201226
1330000000 1.0010144 -0.081842989
1340000000 1.0020589 -0.082604915
1350000000 1.0008641 -0.083709866
1360000000 1.00056 -0.084583983
1370000000 1.0006392 -0.085186958
1380000000 1.0004655 -0.086036332
1390000000 1.0010036 -0.086777091
1400000000 1.0000814 -0.087525934
1410000000 1.0003831 -0.087976865
1420000000 1.0007772 -0.087895393
1430000000 1.000751 -0.088271976
1440000000 0.99970156 -0.088877812
1450000000 0.99986291 -0.088933229
1460000000 0.99890089 -0.08936248
1470000000 0.99917471 -0.089630902
1480000000 0.99915016 -0.089731604
1490000000 0.99865997 -0.091009937
1500000000 0.99871159 -0.091294616
1510000000 0.99920952 -0.092603445
1520000000 0.99877417 -0.093568131
1530000000 0.99934399 -0.094039798
1540000000 0.9991588 -0.093984082
1550000000 0.99917191 -0.094992012
1560000000 0.99853557 -0.094320357
1570000000 0.99884248 -0.094762459
1580000000 0.99866414 -0.095632643
1590000000 0.9986459 -0.0963099
1600000000 0.99808836 -0.096835226
1610000000 0.998734 -0.0974271
1620000000 0.99762118 -0.097322725
1630000000 0.99830627 -0.098342121
1640000000 0.99926573 -0.099408656
1650000000 0.99986118 -0.10032955
1660000000 0.99945295 -0.1010164
1670000000 0.99942929 -0.10131653
1680000000 0.99836838 -0.10158566
1690000000 0.9989996 -0.10209942
1700000000 0.99930131 -0.10273816
1710000000 0.99856377 -0.10367593
1720000000 0.998299 -0.10461575
1730000000 0.99750096 -0.10545552
1740000000 0.9981252 -0.10700014
1750000000 0.99789596 -0.10723858
1760000000 0.9971627 -0.10759735
1770000000 0.99743909 -0.10773787
1780000000 0.99752718 -0.10880893
1790000000 0.99728787 -0.10908523
1800000000 0.99713182 -0.10921748
1810000000 0.99668777 -0.10988536
1820000000 0.99632466 -0.11093009
1830000000 0.99594289 -0.1110966
1840000000 0.99556446 -0.11187756
1850000000 0.99444211 -0.11297905
1860000000 0.99498379 -0.11351968
1870000000 0.99427921 -0.11464828
1880000000 0.9951213 -0.11474039
1890000000 0.99495125 -0.11515883
1900000000 0.99527586 -0.11605787
1910000000 0.99560529 -0.11626665
1920000000 0.99564195 -0.11751139
1930000000 0.99547911 -0.11840101
1940000000 0.99441391 -0.11817425
1950000000 0.99482906 -0.11901724
1960000000 0.99299538 -0.12054206
1970000000 0.99378657 -0.12079662
1980000000 0.99338418 -0.1211333
1990000000 0.99253392 -0.12269858
2000000000 0.99270588 -0.12311959
2010000000 0.99381363 -0.12384646
2020000000 0.99330485 -0.12376741
2030000000 0.99360007 -0.12465575
2040000000 0.99302018 -0.12531264
2050000000 0.99319261 -0.12560979
2060000000 0.99329352 -0.12647672
2070000000 0.99288988 -0.12696365
2080000000 0.99287605 -0.1278924
2090000000 0.99332798 -0.12898946
2100000000 0.99263978 -0.12898833
2110000000 0.99244255 -0.13035887
2120000000 0.99273777 -0.13058218
2130000000 0.99351728 -0.13149971
2140000000 0.99360299 -0.13191846
2150000000 0.99327564 -0.13256255
2160000000 0.99379271 -0.1330367
2170000000 0.99292213 -0.13406223
2180000000 0.99174464 -0.1344687
2190000000 0.99228454 -0.13447994
2200000000 0.99271411 -0.13530305
2210000000 0.9919858 -0.13659775
2220000000 0.99130547 -0.1372191
2230000000 0.99202621 -0.13777462
2240000000 0.99134493 -0.13858348
2250000000 0.9921869 -0.13821618
2260000000 0.99339652 -0.13899314
2270000000 0.99185365 -0.1404129
2280000000 0.99163818 -0.14048068
2290000000 0.99138826 -0.14081863
2300000000 0.99105072 -0.14185479
2310000000 0.99132144 -0.14218605
2320000000 0.99053794 -0.14270186
2330000000 0.99055791 -0.14432156
2340000000 0.98976099 -0.14401212
2350000000 0.99014217 -0.14550678
2360000000 0.99088371 -0.14497986
2370000000 0.9910531 -0.14613321
2380000000 0.99065328 -0.14693737
2390000000 0.99133098 -0.14799848
2400000000 0.99014777 -0.14758506
2410000000 0.98991179 -0.14882469
2420000000 0.98945451 -0.14947927
2430000000 0.98935765 -0.15044862
2440000000 0.98979002 -0.15104669
2450000000 0.98874301 -0.15188962
2460000000 0.98913825 -0.1531163
2470000000 0.98814023 -0.1535483
2480000000 0.98899001 -0.15365006
2490000000 0.98804033 -0.15392807
2500000000 0.98881567 -0.15555376
2510000000 0.98794591 -0.15536042
2520000000 0.98739815 -0.15661496
2530000000 0.98707283 -0.15636447
2540000000 0.98752522 -0.15647392
2550000000 0.98736799 -0.15785187
2560000000 0.98767298 -0.15834035
2570000000 0.98795879 -0.15944034
2580000000 0.98628259 -0.15982121
2590000000 0.98732769 -0.16118369
2600000000 0.9875142 -0.161854
2610000000 0.98624927 -0.1618893
2620000000 0.98694903 -0.16283777
2630000000 0.98704827 -0.16317961
2640000000 0.98579884 -0.16435857
2650000000 0.98612225 -0.16429511
2660000000 0.98628783 -0.16477785
2670000000 0.98606139 -0.16661729
2680000000 0.98507833 -0.16691867
2690000000 0.98539656 -0.16636851
2700000000 0.98484147 -0.16854891
2710000000 0.98437989 -0.16856974
2720000000 0.98343116 -0.17075104
2730000000 0.98358679 -0.16969877
2740000000 0.98321688 -0.17069794
2750000000 0.98319161 -0.17120492
2760000000 0.98347425 -0.17162877
2770000000 0.98190248 -0.17204392
2780000000 0.98208529 -0.1711601
2790000000 0.98208547 -0.17219344
2800000000 0.98101813 -0.17235938
2810000000 0.98176694 -0.17285812
2820000000 0.9816978 -0.17259546
2830000000 0.98115259 -0.17326272
2840000000 0.98202348 -0.17383841
2850000000 0.9825508 -0.17290351
2860000000 0.9823997 -0.1745351
2870000000 0.98132253 -0.17393582
2880000000 0.98304975 -0.17457964
2890000000 0.9824512 -0.17577678
2900000000 0.98322606 -0.17590044
2910000000 0.98303151 -0.1765767
2920000000 0.98243153 -0.17767137
2930000000 0.98186761 -0.17840108
2940000000 0.9828102 -0.17896822
2950000000 0.98359078 -0.179162
2960000000 0.9831934 -0.17940983
2970000000 0.98269022 -0.18091366
2980000000 0.98156554 -0.18127966
2990000000 0.98213053 -0.18130383
3000000000 0.98147607 -0.18161345
3010000000 0.98137784 -0.18302378
3020000000 0.9812057 -0.18256769
3030000000 0.98206055 -0.18383935
3040000000 0.98209649 -0.18404642
3050000000 0.98167568 -0.18381312
3060000000 0.98267084 -0.18468593
3070000000 0.98247421 -0.18535438
3080000000 0.98140943 -0.18555625
3090000000 0.9813543 -0.18718226
3100000000 0.9821229 -0.18644285
3110000000 0.98172134 -0.18782176
3120000000 0.98039097 -0.18853614
3130000000 0.98050094 -0.18840748
3140000000 0.9814443 -0.18884078
3150000000 0.9814617 -0.19012499
3160000000 0.98152947 -0.19004267
3170000000 0.98149812 -0.19083068
3180000000 0.98119211 -0.19115639
3190000000 0.98196435 -0.19219567
3200000000 0.98183382 -0.19331217
3210000000 0.98304456 -0.19303313
3220000000 0.98197937 -0.194189
3230000000 0.98181045 -0.19577959
3240000000 0.98197728 -0.1955795
3250000000 0.98205239 -0.19573486
3260000000 0.98139417 -0.19745943
3270000000 0.98167765 -0.19695413
3280000000 0.98211497 -0.19764185
3290000000 0.9823907 -0.19877456
3300000000 0.98241371 -0.1988683
3310000000 0.98140043 -0.20009062
3320000000 0.98104912 -0.20124838
3330000000 0.9808588 -0.20195156
3340000000 0.98122793 -0.20226634
3350000000 0.9813934 -0.20325959
3360000000 0.98146081 -0.20426637
3370000000 0.98154044 -0.20571908
3380000000 0.98160857 -0.20594823
3390000000 0.98048502 -0.20589387
3400000000 0.98086607 -0.20655276
3410000000 0.98051715 -0.20808098
3420000000 0.98050529 -0.2083278
3430000000 0.98025572 -0.20761879
3440000000 0.98024392 -0.21024781
3450000000 0.98074526 -0.21011063
3460000000 0.97947556 -0.21043679
3470000000 0.97849834 -0.21112671
3480000000 0.97880077 -0.21284974
3490000000 0.97895634 -0.21345845
3500000000 0.97874916 -0.21336865
3510000000 0.97832787 -0.21414638
3520000000 0.97843599 -0.21454212
3530000000 0.97849882 -0.21469127
3540000000 0.97863489 -0.21513432
3550000000 0.97838461 -0.21600038
3560000000 0.97831059 -0.21727851
3570000000 0.97740781 -0.2179895
3580000000 0.97689217 -0.21783932
3590000000 0.97670877 -0.21796182
3600000000 0.97675079 -0.21970302
3610000000 0.9762432 -0.22025211
3620000000 0.97691226 -0.22044042
3630000000 0.97698784 -0.22107282
3640000000 0.97623336 -0.22187996
3650000000 0.97624028 -0.22230911
3660000000 0.97586209 -0.22300793
3670000000 0.97580302 -0.22391647
3680000000 0.97512877 -0.22416835
3690000000 0.97453123 -0.22493859
3700000000 0.9742142 -0.2266762
3710000000 0.97487622 -0.22620685
3720000000 0.97320783 -0.22740391
3730000000 0.9739852 -0.22748816
3740000000 0.97390842 -0.22784175
3750000000 0.9732635 -0.22927177
3760000000 0.97308427 -0.22936799
3770000000 0.97258347 -0.23017916
3780000000 0.97313261 -0.23028338
3790000000 0.972054 -0.23059219
3800000000 0.9716776 -0.23183516
3810000000 0.97180259 -0.23279631
3820000000 0.97108972 -0.23280248
3830000000 0.97134769 -0.23394832
3840000000 0.97127008 -0.2345811
3850000000 0.97127151 -0.23537205
3860000000 0.97040427 -0.23607361
3870000000 0.97044808 -0.23690668
3880000000 0.970559 -0.2366145
3890000000 0.97046602 -0.23725633
3900000000 0.96975851 -0.23745026
3910000000 0.96855938 -0.23763794
3920000000 0.9685986 -0.23852615
3930000000 0.96798301 -0.23915079
3940000000 0.96872056 -0.2393707
3950000000 0.96834302 -0.24079579
3960000000 0.96866548 -0.24187917
3970000000 0.96870571 -0.24191698
3980000000 0.96849239 -0.24280328
3990000000 0.96777862 -0.24298364
4000000000 0.96763271 -0.2440708
4010000000 0.96674955 -0.24423021
4020000000 0.96720105 -0.24469526
4030000000 0.96669078 -0.24581997
4040000000 0.96691167 -0.24641275
4050000000 0.96637017 -0.24667098
4060000000 0.96601403 -0.24728709
4070000000 0.96618569 -0.24831527
4080000000 0.96629483 -0.24864319
4090000000 0.96531928 -0.24968743
4100000000 0.96500427 -0.2500385
4110000000 0.96514195 -0.25061163
4120000000 0.96468949 -0.25098875
4130000000 0.96410781 -0.25159967
4140000000 0.96474171 -0.25199586
4150000000 0.96416187 -0.25233901
4160000000 0.96365094 -0.25397491
4170000000 0.96326411 -0.25462848
4180000000 0.96360224 -0.25472802
4190000000 0.96373343 -0.25549874
4200000000 0.96295178 -0.25574002
4210000000 0.96385318 -0.25686076
4220000000 0.96290898 -0.2576524
4230000000 0.96287 -0.25830173
4240000000 0.96209455 -0.25887018
4250000000 0.96149212 -0.25933167
4260000000 0.96087039 -0.25956893
4270000000 0.96110165 -0.26078251
4280000000 0.96097517 -0.26153833
4290000000 0.96107936 -0.26227266
4300000000 0.96043032 -0.26217818
4310000000 0.95938051 -0.26253846
4320000000 0.95936525 -0.2630291
4330000000 0.95887184 -0.26307967
4340000000 0.95869154 -0.26419702
4350000000 0.95811033 -0.26411515
4360000000 0.95892692 -0.26462919
4370000000 0.95792794 -0.26525235
4380000000 0.95707393 -0.26625094
4390000000 0.95765775 -0.26685029
4400000000 0.95818454 -0.26689309
4410000000 0.95748132 -0.26829806
4420000000 0.95795888 -0.26936683
4430000000 0.95794606 -0.26938328
4440000000 0.95768905 -0.26979935
4450000000 0.95765775 -0.27054214
4460000000 0.95672452 -0.27101547
4470000000 0.95688689 -0.2713668
4480000000 0.95568407 -0.27295983
4490000000 0.95634669 -0.27355382
4500000000 0.95572495 -0.27412874
4510000000 0.9552592 -0.27567738
4520000000 0.95476347 -0.27682465
4530000000 0.95453262 -0.27694029
4540000000 0.95423347 -0.2770623
4550000000 0.9542312 -0.27770892
4560000000 0.95435405 -0.27857637
4570000000 0.95338339 -0.27885234
4580000000 0.95240921 -0.27930617
4590000000 0.95202887 -0.28059438
4600000000 0.95156151 -0.28149766
4610000000 0.95116115 -0.2809715
4620000000 0.95185709 -0.2816942
4630000000 0.9520092 -0.28318799
4640000000 0.95112479 -0.28385636
4650000000 0.95026797 -0.28385749
4660000000 0.9518497 -0.28394464
4670000000 0.95069945 -0.28501654
4680000000 0.95059627 -0.28582156
4690000000 0.95086122 -0.2856085
4700000000 0.95008415 -0.28612113
4710000000 0.94962013 -0.28699028
4720000000 0.94908851 -0.28857085
4730000000 0.94896156 -0.28846607
4740000000 0.94839084 -0.28993171
4750000000 0.94807112 -0.29015645
4760000000 0.94814324 -0.29061043
4770000000 0.94860816 -0.29115853
4780000000 0.94787323 -0.29245359
4790000000 0.94763887 -0.2926259
4800000000 0.94703472 -0.2928628
4810000000 0.94672137 -0.29301283
4820000000 0.94658393 -0.29486006
4830000000 0.94631875 -0.29552558
4840000000 0.94538599 -0.2966274
4850000000 0.94415486 -0.29603708
4860000000 0.94345015 -0.2967543
4870000000 0.94398892 -0.29709643
4880000000 0.94298106 -0.2979629
4890000000 0.94339269 -0.29757622
4900000000 0.94267869 -0.29903558
4910000000 0.94211912 -0.29794678
4920000000 0.94250721 -0.29854488
4930000000 0.94302058 -0.30012962
4940000000 0.9410131 -0.29915547
4950000000 0.94120681 -0.29968661
4960000000 0.94139075 -0.30046862
4970000000 0.94101173 -0.30202317
4980000000 0.94068086 -0.30222857
4990000000 0.93999517 -0.30245298
5000000000 0.9401015 -0.30299196
5010000000 0.93945718 -0.30338374
5020000000 0.93973017 -0.30346036
5030000000 0.93914503 -0.30509377
5040000000 0.93919683 -0.30481032
5050000000 0.93825847 -0.30570862
5060000000 0.9372887 -0.3069061
5070000000 0.9376663 -0.30685556
5080000000 0.93581092 -0.30638477
5090000000 0.93668461 -0.30728206
5100000000 0.93635541 -0.30702752
5110000000 0.93641096 -0.30738887
5120000000 0.93622553 -0.30740094
5130000000 0.93543863 -0.3094373
5140000000 0.93573201 -0.30966204
5150000000 0.93433535 -0.3086049
5160000000 0.93512338 -0.30851883
5170000000 0.93516988 -0.30961627
5180000000 0.93405521 -0.30977052
5190000000 0.9350158 -0.30948028
5200000000 0.93564808 -0.31097835
5210000000 0.93629742 -0.31181341
5220000000 0.93483502 -0.3120704
5230000000 0.93463302 -0.31277922
5240000000 0.93455499 -0.31263193
5250000000 0.93402231 -0.31300271
5260000000 0.93371546 -0.31323123
5270000000 0.93413746 -0.31446311
5280000000 0.93435484 -0.31481245
5290000000 0.93317837 -0.31512296
5300000000 0.93406653 -0.31552181
5310000000 0.93353581 -0.31628489
5320000000 0.93398046 -0.31589553
5330000000 0.93383682 -0.31702346
5340000000 0.93416107 -0.3180846
5350000000 0.93381512 -0.31861627
5360000000 0.93345135 -0.31926534
5370000000 0.93301535 -0.31957224
5380000000 0.9318068 -0.31998223
5390000000 0.93301362 -0.32025191
5400000000 0.93200994 -0.32108131
5410000000 0.93288565 -0.3219589
5420000000 0.93222296 -0.32203287
5430000000 0.93245256 -0.32250643
5440000000 0.93222976 -0.32353243
5450000000 0.93263614 -0.32365328
5460000000 0.93239242 -0.32504642
5470000000 0.93097603 -0.325342
5480000000 0.93106109 -0.32481098
5490000000 0.93186736 -0.32646331
5500000000 0.93096113 -0.32739025
5510000000 0.93043512 -0.3280282
5520000000 0.92927307 -0.32820082
5530000000 0.93023229 -0.32778195
5540000000 0.93004471 -0.32852048
5550000000 0.93111408 -0.32933211
5560000000 0.93050182 -0.33011508
5570000000 0.93075228 -0.33006331
5580000000 0.93135256 -0.33141607
5590000000 0.93088031 -0.33109432
5600000000 0.92914712 -0.33296472
5610000000 0.93011069 -0.33329481
5620000000 0.92835736 -0.33378673
5630000000 0.92838848 -0.33444268
5640000000 0.92799878 -0.33499202
5650000000 0.92799413 -0.33552033
5660000000 0.9280324 -0.33564258
5670000000 0.92693871 -0.33569884
5680000000 0.92760867 -0.33619413
5690000000 0.9275645 -0.33755484
5700000000 0.92705911 -0.33750996
5710000000 0.92709041 -0.33729756
5720000000 0.92739201 -0.33800364
