!Keysight Technologies,N5247B,MY60213743,A.16.20.04
!Date: Thursday, June 05, 2025 15:03:15
!Correction: S11(C  1-Port  ) 
!S1P File: Measurement: S11:
# Hz S  RI   R 50
10000000 -0.76867664 -0.0030048639
20000000 -0.76814198 -0.002897948
30000000 -0.76937908 -0.0010203272
40000000 -0.76975656 -0.00013199449
50000000 -0.76981872 0.0013353229
60000000 -0.77112269 0.0028299689
70000000 -0.77097613 0.0044443905
80000000 -0.77081639 0.0064094737
90000000 -0.76897186 0.006731689
100000000 -0.76927257 0.0058644414
110000000 -0.77047694 0.0065973401
120000000 -0.77109432 0.0071586668
130000000 -0.77092969 0.0089660138
140000000 -0.77139676 0.0093771815
150000000 -0.77097702 0.011224627
160000000 -0.77119297 0.012451485
170000000 -0.77066368 0.014202744
180000000 -0.76998812 0.015570343
190000000 -0.76955903 0.015835196
200000000 -0.76989019 0.01635696
210000000 -0.7706368 0.016775697
220000000 -0.77029622 0.018111199
230000000 -0.77118629 0.019594371
240000000 -0.77111125 0.019872248
250000000 -0.77071214 0.021541983
260000000 -0.77078766 0.02295018
270000000 -0.77019536 0.02414611
280000000 -0.76967072 0.025468186
290000000 -0.76904213 0.026206791
300000000 -0.76903528 0.026873827
310000000 -0.76949179 0.028890114
320000000 -0.77023226 0.028970033
330000000 -0.77027929 0.030724227
340000000 -0.77034461 0.031638354
350000000 -0.77066821 0.032404274
360000000 -0.77072477 0.033630282
370000000 -0.77029437 0.034831308
380000000 -0.77020478 0.035424173
390000000 -0.76999676 0.037053823
400000000 -0.76950109 0.037795126
410000000 -0.76928198 0.038541496
420000000 -0.76973659 0.041041017
430000000 -0.7695567 0.041746467
440000000 -0.77010268 0.041896373
450000000 -0.77002269 0.043524764
460000000 -0.77020276 0.044088066
470000000 -0.77066177 0.045002084
480000000 -0.77034599 0.045731127
490000000 -0.76982188 0.047316015
500000000 -0.77023244 0.047610804
510000000 -0.76956236 0.049113452
520000000 -0.76970977 0.050213203
530000000 -0.7697469 0.051376104
540000000 -0.76967442 0.052808732
550000000 -0.76968002 0.053819779
560000000 -0.76960766 0.054939002
570000000 -0.76962233 0.055842273
580000000 -0.76905906 0.056670368
590000000 -0.76923263 0.057712972
600000000 -0.76948506 0.057562973
610000000 -0.76879656 0.059706807
620000000 -0.76944256 0.060251206
630000000 -0.76963621 0.061334319
640000000 -0.76944494 0.062437147
650000000 -0.7691378 0.063571766
660000000 -0.7687242 0.064537436
670000000 -0.76885235 0.066348955
680000000 -0.76870853 0.066935807
690000000 -0.76818943 0.067155391
700000000 -0.76877916 0.068863004
710000000 -0.76867515 0.069861129
720000000 -0.76922661 0.070851266
730000000 -0.76892096 0.071856618
740000000 -0.76833987 0.072977751
750000000 -0.7684406 0.073441789
760000000 -0.76781082 0.074151307
770000000 -0.76734471 0.076287448
780000000 -0.76774758 0.076328546
790000000 -0.76705712 0.078402668
800000000 -0.76733291 0.078320354
810000000 -0.76707524 0.079753794
820000000 -0.76688892 0.080558389
830000000 -0.7665447 0.081697106
840000000 -0.76710933 0.08275342
850000000 -0.76694477 0.08403185
860000000 -0.76665884 0.085006304
870000000 -0.76569283 0.086053371
880000000 -0.7658186 0.0866763
890000000 -0.76572031 0.087681606
900000000 -0.76514596 0.088864744
910000000 -0.76528674 0.090323895
920000000 -0.76500982 0.091142982
930000000 -0.76473331 0.092011839
940000000 -0.7650131 0.093058042
950000000 -0.76495081 0.094133109
960000000 -0.76397872 0.094717726
970000000 -0.76356363 0.095843494
980000000 -0.76389933 0.097066343
990000000 -0.76329964 0.09746705
1000000000 -0.76430333 0.099665746
1010000000 -0.76384121 0.10008723
1020000000 -0.76352125 0.1015432
1030000000 -0.76368666 0.10222596
1040000000 -0.76255083 0.1036541
1050000000 -0.76335222 0.10447671
1060000000 -0.76297724 0.10505536
1070000000 -0.76282978 0.10694106
1080000000 -0.76295805 0.10747072
1090000000 -0.76308745 0.10865843
1100000000 -0.76301652 0.11009432
1110000000 -0.76286972 0.11025724
1120000000 -0.76322502 0.11144882
1130000000 -0.76298255 0.11270076
1140000000 -0.76286495 0.11405331
1150000000 -0.76276672 0.11466929
1160000000 -0.76210594 0.11567506
1170000000 -0.76212251 0.11651714
1180000000 -0.7618717 0.11758737
1190000000 -0.76158142 0.1183877
1200000000 -0.76182246 0.1199618
1210000000 -0.76221418 0.12031069
1220000000 -0.76166421 0.12130012
1230000000 -0.76214969 0.1228666
1240000000 -0.76113224 0.12344074
1250000000 -0.76105487 0.12421516
1260000000 -0.761015 0.1247565
1270000000 -0.76109445 0.12622347
1280000000 -0.76045382 0.12683241
1290000000 -0.76000905 0.12808016
1300000000 -0.75987566 0.12918088
1310000000 -0.75961596 0.13009651
1320000000 -0.75930858 0.13116571
1330000000 -0.75859165 0.13210978
1340000000 -0.75963581 0.1328826
1350000000 -0.75929916 0.13436168
1360000000 -0.75958031 0.13476196
1370000000 -0.75964844 0.13539138
1380000000 -0.75949019 0.13620919
1390000000 -0.75864077 0.13757195
1400000000 -0.75832319 0.13867253
1410000000 -0.75778419 0.13929462
1420000000 -0.75714868 0.14057791
1430000000 -0.75638902 0.14203076
1440000000 -0.75619 0.14281934
1450000000 -0.75645208 0.14427188
1460000000 -0.75652552 0.14482802
1470000000 -0.75662661 0.14593142
1480000000 -0.75657254 0.14692634
1490000000 -0.75604451 0.14754969
1500000000 -0.75607836 0.14878768
1510000000 -0.75531429 0.14959787
1520000000 -0.75505841 0.1508431
1530000000 -0.75432587 0.15113977
1540000000 -0.7549333 0.15227713
1550000000 -0.7533952 0.15345091
1560000000 -0.75376368 0.15490685
1570000000 -0.75360036 0.15558138
1580000000 -0.75379837 0.15605944
1590000000 -0.75387132 0.15767919
1600000000 -0.75349289 0.15880752
1610000000 -0.75382608 0.15969773
1620000000 -0.7532925 0.1605403
1630000000 -0.75245476 0.16086674
1640000000 -0.75298059 0.16191834
1650000000 -0.75236672 0.1629625
1660000000 -0.75205195 0.16383055
1670000000 -0.75166577 0.16544907
1680000000 -0.75153321 0.16664854
1690000000 -0.7512877 0.16727163
1700000000 -0.75138891 0.16848543
1710000000 -0.75162631 0.16965505
1720000000 -0.75132799 0.1699596
1730000000 -0.75076097 0.17096916
1740000000 -0.75171667 0.17134735
1750000000 -0.75109452 0.17242137
1760000000 -0.75064802 0.17346466
1770000000 -0.7503891 0.1753929
1780000000 -0.74975687 0.17525223
1790000000 -0.74943829 0.17718861
1800000000 -0.74931902 0.17794478
1810000000 -0.74897867 0.17828405
1820000000 -0.74987632 0.18046604
1830000000 -0.75004435 0.18105647
1840000000 -0.74947941 0.18120515
1850000000 -0.74973553 0.1826134
1860000000 -0.74997944 0.18343909
1870000000 -0.7490679 0.1834408
1880000000 -0.74889863 0.18551254
1890000000 -0.74832976 0.18593761
1900000000 -0.74848187 0.18667851
1910000000 -0.74708843 0.18777695
1920000000 -0.74782479 0.18917421
1930000000 -0.74753904 0.18990788
1940000000 -0.74753577 0.19129847
1950000000 -0.74780774 0.19203177
1960000000 -0.74761027 0.19311562
1970000000 -0.74747092 0.1933094
1980000000 -0.74649292 0.19386062
1990000000 -0.74691725 0.19486009
2000000000 -0.74600548 0.19534838
2010000000 -0.74566978 0.19619071
2020000000 -0.74463314 0.19793856
2030000000 -0.74466443 0.19838963
2040000000 -0.74475491 0.19996354
2050000000 -0.74340546 0.20059243
2060000000 -0.74382776 0.20171598
2070000000 -0.74316621 0.20270933
2080000000 -0.74367416 0.20350811
2090000000 -0.74413848 0.20460233
2100000000 -0.74278682 0.20456082
2110000000 -0.74234468 0.2059141
2120000000 -0.74193019 0.2070774
2130000000 -0.74131083 0.20699388
2140000000 -0.74058431 0.20798054
2150000000 -0.7404325 0.20909823
2160000000 -0.73941875 0.21042295
2170000000 -0.73944914 0.21215715
2180000000 -0.7399137 0.21265337
2190000000 -0.73902637 0.21335489
2200000000 -0.73863149 0.21517101
2210000000 -0.73951697 0.21507069
2220000000 -0.73828912 0.21623594
2230000000 -0.73772502 0.21672301
2240000000 -0.7378332 0.21741286
2250000000 -0.73712844 0.21894199
2260000000 -0.73648238 0.21874326
2270000000 -0.73590499 0.2209979
2280000000 -0.73608142 0.22155869
2290000000 -0.73520231 0.2228318
2300000000 -0.73556578 0.2235629
2310000000 -0.73531348 0.22417098
2320000000 -0.73513842 0.22555944
2330000000 -0.73463488 0.2263163
2340000000 -0.73443961 0.22724813
2350000000 -0.73425919 0.22838727
2360000000 -0.73321831 0.22883682
2370000000 -0.73256642 0.23009397
2380000000 -0.73293036 0.23027785
2390000000 -0.73247743 0.23157278
2400000000 -0.73206854 0.23269561
2410000000 -0.73082161 0.23399685
2420000000 -0.73122931 0.23464537
2430000000 -0.73086554 0.23509663
2440000000 -0.73043239 0.23628163
2450000000 -0.73054725 0.23657373
2460000000 -0.730506 0.23742011
2470000000 -0.73027682 0.23830479
2480000000 -0.72970337 0.23897609
2490000000 -0.72881496 0.24058995
2500000000 -0.72860283 0.24102865
2510000000 -0.72817189 0.24278693
2520000000 -0.72801787 0.24297339
2530000000 -0.72728926 0.24364758
2540000000 -0.72714776 0.24439096
2550000000 -0.72699034 0.24576621
2560000000 -0.72636485 0.24618286
2570000000 -0.72613728 0.24715383
2580000000 -0.72578973 0.24812946
2590000000 -0.72542751 0.24893957
2600000000 -0.72553211 0.24947819
2610000000 -0.72398102 0.25092915
2620000000 -0.72366542 0.25105661
2630000000 -0.72318494 0.25222945
2640000000 -0.72287148 0.25374639
2650000000 -0.72301352 0.25446755
2660000000 -0.72247708 0.25495297
2670000000 -0.72271836 0.25589982
2680000000 -0.72174466 0.25638407
2690000000 -0.72106487 0.25770682
2700000000 -0.72135663 0.25763622
2710000000 -0.7207666 0.25941432
2720000000 -0.72030389 0.25940946
2730000000 -0.71996295 0.26072475
2740000000 -0.71879697 0.26151547
2750000000 -0.7183364 0.26234478
2760000000 -0.71845376 0.26350096
2770000000 -0.71810728 0.2639522
2780000000 -0.71811211 0.26453865
2790000000 -0.71719724 0.26554063
2800000000 -0.71653599 0.26621482
2810000000 -0.71629006 0.26681483
2820000000 -0.71569633 0.26747918
2830000000 -0.71515864 0.26839036
2840000000 -0.71505266 0.26958978
2850000000 -0.71457458 0.27139926
2860000000 -0.7140938 0.27155733
2870000000 -0.71354258 0.2726666
2880000000 -0.71325493 0.27379864
2890000000 -0.71280205 0.27342731
2900000000 -0.71250641 0.27458066
2910000000 -0.71204287 0.27566522
2920000000 -0.71226174 0.27603108
2930000000 -0.71128255 0.27757755
2940000000 -0.71152651 0.2785877
2950000000 -0.71210557 0.27908143
2960000000 -0.7100575 0.28062329
2970000000 -0.71006453 0.28146595
2980000000 -0.70979565 0.28164989
2990000000 -0.70934212 0.28259337
3000000000 -0.70869577 0.28365928
3010000000 -0.70885861 0.28467125
3020000000 -0.70858377 0.28486419
3030000000 -0.70815766 0.28580853
3040000000 -0.70681763 0.28677374
3050000000 -0.70695347 0.28773442
3060000000 -0.70663393 0.28826496
3070000000 -0.70522678 0.28929907
3080000000 -0.70523947 0.29014727
3090000000 -0.70561218 0.29074058
3100000000 -0.70482534 0.29238039
3110000000 -0.70498282 0.29357815
3120000000 -0.70432156 0.2936427
3130000000 -0.70405638 0.29451445
3140000000 -0.70319724 0.29552794
3150000000 -0.70297933 0.29599127
3160000000 -0.70220882 0.29733282
3170000000 -0.70248568 0.29793656
3180000000 -0.70164722 0.29883644
3190000000 -0.70100731 0.29946619
3200000000 -0.70152605 0.30056867
3210000000 -0.70099652 0.30151421
3220000000 -0.70106423 0.30209869
3230000000 -0.70065862 0.30228078
3240000000 -0.69961578 0.303922
3250000000 -0.69908714 0.30428839
3260000000 -0.69850755 0.30550259
3270000000 -0.69839203 0.30594474
3280000000 -0.6970551 0.30618557
3290000000 -0.69765687 0.30768508
3300000000 -0.69687498 0.30869442
3310000000 -0.69636989 0.309802
3320000000 -0.69559056 0.3107971
3330000000 -0.69520456 0.31127122
3340000000 -0.69530523 0.31218296
3350000000 -0.69465858 0.31263801
3360000000 -0.69456375 0.31335592
3370000000 -0.69406599 0.31412977
3380000000 -0.69376087 0.31531328
3390000000 -0.69269729 0.31612805
3400000000 -0.6924333 0.31696749
3410000000 -0.69218373 0.31851119
3420000000 -0.69042331 0.31912154
3430000000 -0.69062084 0.32000327
3440000000 -0.69020182 0.32084581
3450000000 -0.69038182 0.32105076
3460000000 -0.68982875 0.32183716
3470000000 -0.68957829 0.32314634
3480000000 -0.68945783 0.32392734
3490000000 -0.68849909 0.32473153
3500000000 -0.68809664 0.32555583
3510000000 -0.68736106 0.32640547
3520000000 -0.68787962 0.32696944
3530000000 -0.68580741 0.32852858
3540000000 -0.68699217 0.32915872
3550000000 -0.68601578 0.32949188
3560000000 -0.68581092 0.331002
3570000000 -0.68538094 0.33183157
3580000000 -0.68501049 0.33285338
3590000000 -0.68501478 0.3328166
3600000000 -0.68420792 0.33343047
3610000000 -0.68381554 0.33478612
3620000000 -0.68380141 0.33575365
3630000000 -0.68310887 0.3366816
3640000000 -0.68333763 0.3376267
3650000000 -0.68148661 0.33761287
3660000000 -0.68133426 0.33930448
3670000000 -0.6819998 0.34103814
3680000000 -0.68194002 0.34126961
3690000000 -0.68091661 0.34184664
3700000000 -0.68104929 0.34300017
3710000000 -0.68002307 0.34310359
3720000000 -0.68043238 0.34414977
3730000000 -0.67940181 0.34472382
3740000000 -0.67892981 0.34616512
3750000000 -0.67820287 0.34637731
3760000000 -0.67731744 0.34808034
3770000000 -0.67724383 0.3487148
3780000000 -0.67709577 0.34943289
3790000000 -0.67689228 0.35068172
3800000000 -0.67700905 0.35140735
3810000000 -0.67668492 0.35200685
3820000000 -0.6761086 0.35280266
3830000000 -0.67567164 0.35308355
3840000000 -0.67522347 0.35360083
3850000000 -0.67438865 0.35455129
3860000000 -0.67423463 0.35515952
3870000000 -0.67358875 0.35657811
3880000000 -0.67283213 0.35742083
3890000000 -0.67206651 0.35842779
3900000000 -0.67180717 0.35899863
3910000000 -0.6714375 0.36031747
3920000000 -0.67110115 0.36028278
3930000000 -0.67039901 0.36044967
3940000000 -0.67056209 0.36237121
3950000000 -0.6697613 0.36291477
3960000000 -0.66995132 0.36369118
3970000000 -0.66924596 0.36424845
3980000000 -0.668378 0.36466944
3990000000 -0.66768765 0.36633289
4000000000 -0.66763794 0.36659753
4010000000 -0.66727257 0.36762661
4020000000 -0.66625774 0.36852577
4030000000 -0.66608661 0.3690142
4040000000 -0.66600764 0.37044793
4050000000 -0.66565299 0.37060386
4060000000 -0.66474855 0.37186188
4070000000 -0.66503346 0.37250715
4080000000 -0.66377306 0.37372392
4090000000 -0.66386306 0.3743031
4100000000 -0.66301596 0.37466258
4110000000 -0.66207445 0.3755838
4120000000 -0.66162074 0.37594044
4130000000 -0.66140097 0.37715217
4140000000 -0.66092199 0.37759915
4150000000 -0.66080892 0.37891081
4160000000 -0.66010547 0.37960047
4170000000 -0.65973842 0.37990454
4180000000 -0.6590668 0.38090006
4190000000 -0.65856498 0.38206828
4200000000 -0.65810734 0.38221872
4210000000 -0.65746504 0.38281631
4220000000 -0.65695715 0.38449508
4230000000 -0.65665418 0.38455018
4240000000 -0.65621167 0.38559413
4250000000 -0.65558457 0.38620225
4260000000 -0.65528089 0.38728598
4270000000 -0.65531373 0.38846803
4280000000 -0.65424716 0.38842914
4290000000 -0.65366155 0.38951173
4300000000 -0.65349364 0.38960272
4310000000 -0.65326971 0.39109117
4320000000 -0.65226579 0.39179707
4330000000 -0.65179539 0.39277852
4340000000 -0.65193212 0.39370906
4350000000 -0.65134245 0.39417762
4360000000 -0.65066069 0.39470086
4370000000 -0.65025061 0.39605495
4380000000 -0.65046638 0.39589152
4390000000 -0.64918816 0.39667183
4400000000 -0.64883453 0.39693043
4410000000 -0.64831746 0.39844382
4420000000 -0.64798057 0.39900649
4430000000 -0.64733815 0.39948392
4440000000 -0.64703518 0.40017214
4450000000 -0.64562219 0.40118527
4460000000 -0.64573288 0.40194523
4470000000 -0.6457504 0.40310758
4480000000 -0.64520419 0.40365809
4490000000 -0.64443564 0.40457246
4500000000 -0.64327651 0.40476307
4510000000 -0.64346129 0.40495789
4520000000 -0.64320004 0.40644184
4530000000 -0.64240479 0.40714651
4540000000 -0.64177692 0.40774375
4550000000 -0.64144868 0.40813607
4560000000 -0.64128911 0.40926355
4570000000 -0.6398173 0.4098841
4580000000 -0.63961172 0.4107188
4590000000 -0.63970327 0.41104737
4600000000 -0.63805169 0.41165006
4610000000 -0.6386168 0.41214246
4620000000 -0.63795352 0.41319412
4630000000 -0.63775182 0.41307941
4640000000 -0.63637364 0.41395825
4650000000 -0.63603997 0.41496968
4660000000 -0.63481057 0.41567132
4670000000 -0.63432801 0.41672087
4680000000 -0.63393849 0.41761768
4690000000 -0.63384259 0.41777402
4700000000 -0.63348472 0.4190385
4710000000 -0.63316649 0.41931066
4720000000 -0.63222104 0.41951263
4730000000 -0.63213587 0.42005727
4740000000 -0.63207823 0.4211939
4750000000 -0.63084161 0.42156908
4760000000 -0.6305654 0.42238811
4770000000 -0.62970126 0.42309067
4780000000 -0.62899137 0.424164
4790000000 -0.62855303 0.42491323
4800000000 -0.62769473 0.42493963
4810000000 -0.62718558 0.42648923
4820000000 -0.62655962 0.42691779
4830000000 -0.62583953 0.42759466
4840000000 -0.62626982 0.42808029
4850000000 -0.62549126 0.42853284
4860000000 -0.62490988 0.42850399
4870000000 -0.62455207 0.42937797
4880000000 -0.62381351 0.42975345
4890000000 -0.62300497 0.43134102
4900000000 -0.62235171 0.43174258
4910000000 -0.62184691 0.4324359
4920000000 -0.6210587 0.43320712
4930000000 -0.62121451 0.43403172
4940000000 -0.62015522 0.43431672
4950000000 -0.62065506 0.43508935
4960000000 -0.61963171 0.43607053
4970000000 -0.61908489 0.4362238
4980000000 -0.61816257 0.43661106
4990000000 -0.61790591 0.43793815
5000000000 -0.61742377 0.43879005
5010000000 -0.61691755 0.4390066
5020000000 -0.61644632 0.43921804
5030000000 -0.61604428 0.44127864
5040000000 -0.61533487 0.44132262
5050000000 -0.61494762 0.44230267
5060000000 -0.61503214 0.44298518
5070000000 -0.6138745 0.44343781
5080000000 -0.61314231 0.4446899
5090000000 -0.61321509 0.44480288
5100000000 -0.61243427 0.4449549
5110000000 -0.61228693 0.44610834
5120000000 -0.61125445 0.44697261
5130000000 -0.61076683 0.44747221
5140000000 -0.61069536 0.4477514
5150000000 -0.60980368 0.44839221
5160000000 -0.60883474 0.44922251
5170000000 -0.60917455 0.45015058
5180000000 -0.60861254 0.44991729
5190000000 -0.60778821 0.45111537
5200000000 -0.6078198 0.45184517
5210000000 -0.60683435 0.45250764
5220000000 -0.60630083 0.45324385
5230000000 -0.60541159 0.45395592
5240000000 -0.60476786 0.45507538
5250000000 -0.6047436 0.45557946
5260000000 -0.60410482 0.45572299
5270000000 -0.60293162 0.45671222
5280000000 -0.60265619 0.45655999
5290000000 -0.60175234 0.45760912
5300000000 -0.60157508 0.45810989
5310000000 -0.60144609 0.45954365
5320000000 -0.60053885 0.45981544
5330000000 -0.60057592 0.46048388
5340000000 -0.59984696 0.4614265
5350000000 -0.5987649 0.46158579
5360000000 -0.59946299 0.46276546
5370000000 -0.59845448 0.46421081
5380000000 -0.59772718 0.46455944
5390000000 -0.59665203 0.46466494
5400000000 -0.59678745 0.46519262
5410000000 -0.59541297 0.46522635
5420000000 -0.59521592 0.46658516
5430000000 -0.59522069 0.46740502
5440000000 -0.59422588 0.46823284
5450000000 -0.59392416 0.46892369
5460000000 -0.59318864 0.46876821
5470000000 -0.59255046 0.46976256
5480000000 -0.59286875 0.47131681
5490000000 -0.59152746 0.47204465
5500000000 -0.59158498 0.4725585
5510000000 -0.59072667 0.47241151
5520000000 -0.58978945 0.47253874
5530000000 -0.58898938 0.47348297
5540000000 -0.58839011 0.47410542
5550000000 -0.58829898 0.47546837
5560000000 -0.58714879 0.47614843
5570000000 -0.58673298 0.47715622
5580000000 -0.58642876 0.47803444
5590000000 -0.58600974 0.47826844
5600000000 -0.58543795 0.47878543
5610000000 -0.58500916 0.48028466
5620000000 -0.58451444 0.48081684
5630000000 -0.58477771 0.48036706
5640000000 -0.58475798 0.4818747
5650000000 -0.58278269 0.48247406
5660000000 -0.58223629 0.48257497
5670000000 -0.58176351 0.48375657
5680000000 -0.5811069 0.48401988
5690000000 -0.5807724 0.48494321
